 (2019-06-04 13:09:49.115038)  can0  601   [8]  00 00 0F 19 00 1D 02 85
 (2019-06-04 13:09:49.115803)  can0  602   [8]  00 00 00 00 05 D7 03 00
 (2019-06-04 13:09:49.219484)  can0  601   [8]  00 00 0F 19 00 1F 02 85
 (2019-06-04 13:09:49.220246)  can0  602   [8]  00 00 00 00 05 D7 03 00
 (2019-06-04 13:09:49.319807)  can0  601   [8]  00 00 0F 19 00 1C 02 85
 (2019-06-04 13:09:49.320566)  can0  602   [8]  00 00 00 00 05 D7 03 00
 (2019-06-04 13:09:49.420230)  can0  601   [8]  00 00 0F 19 00 1E 02 85
 (2019-06-04 13:09:49.420987)  can0  602   [8]  00 00 00 00 05 D7 03 00
 (2019-06-04 13:09:49.524674)  can0  601   [8]  00 00 0F 19 00 1E 02 85
 (2019-06-04 13:09:49.525445)  can0  602   [8]  00 00 00 00 05 D7 03 00
 (2019-06-04 13:09:49.625031)  can0  601   [8]  00 00 0F 19 00 1C 02 85
 (2019-06-04 13:09:49.625778)  can0  602   [8]  00 00 00 00 05 D7 03 00
 (2019-06-04 13:09:49.729471)  can0  601   [8]  00 00 0F 19 00 1A 02 85
 (2019-06-04 13:09:49.730230)  can0  602   [8]  00 00 00 00 05 D7 03 00
 (2019-06-04 13:09:49.829839)  can0  601   [8]  00 00 0F 19 00 1C 02 85
 (2019-06-04 13:09:49.830597)  can0  602   [8]  00 00 00 00 05 D7 03 00
 (2019-06-04 13:09:49.930248)  can0  601   [8]  00 00 0F 19 00 1D 02 85
 (2019-06-04 13:09:49.931001)  can0  602   [8]  00 00 00 00 05 D7 03 00
 (2019-06-04 13:09:50.034668)  can0  601   [8]  00 00 0F 19 00 1A 02 85
 (2019-06-04 13:09:50.035452)  can0  602   [8]  00 00 00 00 05 D7 03 00
 (2019-06-04 13:09:50.135036)  can0  601   [8]  00 00 0F 19 00 1F 02 85
 (2019-06-04 13:09:50.135796)  can0  602   [8]  00 00 00 00 05 D7 03 00
 (2019-06-04 13:09:50.239472)  can0  601   [8]  00 00 0F 19 00 21 02 85
 (2019-06-04 13:09:50.240231)  can0  602   [8]  00 00 00 00 05 D7 03 00
 (2019-06-04 13:09:50.339779)  can0  601   [8]  00 00 0F 19 00 1C 02 85
 (2019-06-04 13:09:50.340537)  can0  602   [8]  00 00 00 00 05 D7 03 00
 (2019-06-04 13:09:50.440279)  can0  601   [8]  00 00 0F 19 00 1D 02 85
 (2019-06-04 13:09:50.441033)  can0  602   [8]  00 00 00 00 05 D7 03 00
 (2019-06-04 13:09:50.544872)  can0  601   [8]  00 00 0F 19 00 18 02 85
 (2019-06-04 13:09:50.545643)  can0  602   [8]  00 00 00 00 06 D7 03 00
 (2019-06-04 13:09:50.645059)  can0  601   [8]  00 00 0F 19 00 1D 02 85
 (2019-06-04 13:09:50.645819)  can0  602   [8]  00 00 00 00 06 D7 03 00
 (2019-06-04 13:09:50.745453)  can0  601   [8]  00 00 0F 19 00 1F 02 85
 (2019-06-04 13:09:50.746213)  can0  602   [8]  00 00 00 00 06 D7 03 00
 (2019-06-04 13:09:50.849868)  can0  601   [8]  00 00 0F 19 00 20 02 85
 (2019-06-04 13:09:50.850623)  can0  602   [8]  00 00 00 00 07 D7 03 00
 (2019-06-04 13:09:50.950287)  can0  601   [8]  00 00 0F 19 00 1E 02 85
 (2019-06-04 13:09:50.951045)  can0  602   [8]  00 00 00 00 08 D7 03 00
 (2019-06-04 13:09:51.054859)  can0  601   [8]  00 00 0F 19 00 1E 02 85
 (2019-06-04 13:09:51.055630)  can0  602   [8]  00 00 00 00 08 D7 03 00
 (2019-06-04 13:09:51.155091)  can0  601   [8]  00 00 0F 19 00 23 02 85
 (2019-06-04 13:09:51.155850)  can0  602   [8]  00 00 00 00 08 D7 03 00
 (2019-06-04 13:09:51.255425)  can0  601   [8]  00 00 0F 19 00 1E 02 85
 (2019-06-04 13:09:51.256176)  can0  602   [8]  00 00 00 00 09 D7 03 00
 (2019-06-04 13:09:51.355911)  can0  601   [8]  00 00 0F 19 00 2E 02 85
 (2019-06-04 13:09:51.356669)  can0  602   [8]  00 00 00 00 0A D7 01 00
 (2019-06-04 13:09:51.460309)  can0  601   [8]  00 00 0F 19 00 37 02 85
 (2019-06-04 13:09:51.461058)  can0  602   [8]  00 00 00 00 0A D7 01 00
 (2019-06-04 13:09:51.560685)  can0  601   [8]  00 00 0F 19 00 67 02 85
 (2019-06-04 13:09:51.561438)  can0  602   [8]  00 01 00 00 0B D7 01 00
 (2019-06-04 13:09:51.661158)  can0  601   [8]  00 00 0F 19 00 AF 02 85
 (2019-06-04 13:09:51.661906)  can0  602   [8]  00 01 00 00 0B D7 01 00
 (2019-06-04 13:09:51.765556)  can0  601   [8]  00 1D 0F 19 01 04 02 85
 (2019-06-04 13:09:51.766315)  can0  602   [8]  00 01 00 00 0B D7 01 00
 (2019-06-04 13:09:51.865883)  can0  601   [8]  00 3E 0F 19 01 34 02 85
 (2019-06-04 13:09:51.866646)  can0  602   [8]  00 02 00 00 0C D7 01 00
 (2019-06-04 13:09:51.966301)  can0  601   [8]  00 72 0F 19 01 59 02 85
 (2019-06-04 13:09:51.967075)  can0  602   [8]  00 04 00 00 0C D7 01 00
 (2019-06-04 13:09:52.066701)  can0  601   [8]  00 AA 0F 19 01 44 02 85
 (2019-06-04 13:09:52.067477)  can0  602   [8]  00 05 00 00 0C D7 01 00
 (2019-06-04 13:09:52.171139)  can0  601   [8]  00 D5 0F 19 01 19 02 85
 (2019-06-04 13:09:52.171899)  can0  602   [8]  00 07 00 00 0C D7 01 00
 (2019-06-04 13:09:52.271550)  can0  601   [8]  01 0F 0F 19 01 30 02 85
 (2019-06-04 13:09:52.272303)  can0  602   [8]  00 09 00 00 0D D7 01 00
 (2019-06-04 13:09:52.375955)  can0  601   [8]  01 5D 0F 19 01 3F 02 85
 (2019-06-04 13:09:52.376702)  can0  602   [8]  00 0B 00 00 0D D7 01 00
 (2019-06-04 13:09:52.480352)  can0  601   [8]  01 91 0F 19 01 24 02 85
 (2019-06-04 13:09:52.481107)  can0  602   [8]  00 0D 00 00 0D D7 01 00
 (2019-06-04 13:09:52.580743)  can0  601   [8]  01 AD 0F 19 00 FA 02 85
 (2019-06-04 13:09:52.581500)  can0  602   [8]  00 0E 00 00 0D D7 01 00
 (2019-06-04 13:09:52.685157)  can0  601   [8]  01 BD 0F 19 00 CC 02 85
 (2019-06-04 13:09:52.685906)  can0  602   [8]  00 0E 00 00 0D D7 01 00
 (2019-06-04 13:09:52.785584)  can0  601   [8]  01 BF 0F 19 00 C6 02 85
 (2019-06-04 13:09:52.786340)  can0  602   [8]  00 0F 00 00 0D D7 01 00
 (2019-06-04 13:09:52.890000)  can0  601   [8]  01 C5 0F 19 00 A3 02 85
 (2019-06-04 13:09:52.890781)  can0  602   [8]  00 0F 00 00 0D D7 01 00
 (2019-06-04 13:09:52.994443)  can0  601   [8]  01 CB 0F 19 00 B3 02 85
 (2019-06-04 13:09:52.995209)  can0  602   [8]  00 0F 00 00 0D D7 01 00
 (2019-06-04 13:09:53.094867)  can0  601   [8]  01 D6 0F 19 00 BF 02 85
 (2019-06-04 13:09:53.095634)  can0  602   [8]  00 10 00 00 0D D7 01 00
 (2019-06-04 13:09:53.199191)  can0  601   [8]  01 E1 0F 19 00 D8 02 85
 (2019-06-04 13:09:53.199944)  can0  602   [8]  00 10 00 00 0E D7 01 00
 (2019-06-04 13:09:53.299614)  can0  601   [8]  01 EE 0F 19 00 D5 02 85
 (2019-06-04 13:09:53.300369)  can0  602   [8]  00 10 00 00 0E D7 01 00
 (2019-06-04 13:09:53.404033)  can0  601   [8]  01 F7 0F 19 00 D0 02 85
 (2019-06-04 13:09:53.404939)  can0  602   [8]  00 11 00 00 0E D7 01 00
 (2019-06-04 13:09:53.504452)  can0  601   [8]  01 FB 0F 19 00 DA 02 85
 (2019-06-04 13:09:53.505229)  can0  602   [8]  00 11 00 00 0E D7 01 00
 (2019-06-04 13:09:53.608870)  can0  601   [8]  02 01 0F 19 00 C6 02 85
 (2019-06-04 13:09:53.609630)  can0  602   [8]  00 11 00 00 0E D7 01 00
 (2019-06-04 13:09:53.713256)  can0  601   [8]  02 03 0F 19 00 A9 02 85
 (2019-06-04 13:09:53.714036)  can0  602   [8]  00 11 00 00 0E D7 01 00
 (2019-06-04 13:09:53.813631)  can0  601   [8]  02 04 0F 19 00 AA 02 85
 (2019-06-04 13:09:53.814395)  can0  602   [8]  00 11 00 00 0E D7 01 00
 (2019-06-04 13:09:53.918067)  can0  601   [8]  02 05 0F 19 00 AF 02 85
 (2019-06-04 13:09:53.918825)  can0  602   [8]  00 11 00 00 0E D7 01 00
 (2019-06-04 13:09:54.018445)  can0  601   [8]  02 0B 0F 19 00 D1 02 85
 (2019-06-04 13:09:54.019220)  can0  602   [8]  00 11 00 00 0E D7 01 00
 (2019-06-04 13:09:54.122848)  can0  601   [8]  02 1A 0F 19 00 EB 02 85
 (2019-06-04 13:09:54.123616)  can0  602   [8]  00 12 00 00 0E D7 01 00
 (2019-06-04 13:09:54.223284)  can0  601   [8]  02 34 0F 19 01 09 02 85
 (2019-06-04 13:09:54.224041)  can0  602   [8]  00 13 00 00 0E D7 01 00
 (2019-06-04 13:09:54.327739)  can0  601   [8]  02 50 0F 19 01 13 02 85
 (2019-06-04 13:09:54.328490)  can0  602   [8]  00 14 00 00 0E D7 01 00
 (2019-06-04 13:09:54.428081)  can0  601   [8]  02 72 0F 19 01 1D 02 85
 (2019-06-04 13:09:54.428834)  can0  602   [8]  00 15 00 00 0F D7 01 00
 (2019-06-04 13:09:54.532469)  can0  601   [8]  02 9A 0F 19 01 23 02 85
 (2019-06-04 13:09:54.533221)  can0  602   [8]  00 16 00 00 0F D7 01 00
 (2019-06-04 13:09:54.636870)  can0  601   [8]  02 BA 0F 19 01 13 02 85
 (2019-06-04 13:09:54.637631)  can0  602   [8]  00 17 00 00 0F D7 01 00
 (2019-06-04 13:09:54.737293)  can0  601   [8]  02 E0 0F 19 01 1A 02 85
 (2019-06-04 13:09:54.738054)  can0  602   [8]  00 18 00 00 10 D7 01 00
 (2019-06-04 13:09:54.841705)  can0  601   [8]  03 1A 0F 19 01 39 02 82
 (2019-06-04 13:09:54.842463)  can0  602   [8]  00 1A 00 00 10 D7 01 00
 (2019-06-04 13:09:54.946121)  can0  601   [8]  03 47 0F 19 01 25 02 85
 (2019-06-04 13:09:54.946872)  can0  602   [8]  00 1C 00 00 10 D7 01 00
 (2019-06-04 13:09:55.046540)  can0  601   [8]  03 63 0F 19 01 11 02 85
 (2019-06-04 13:09:55.047289)  can0  602   [8]  00 1D 00 00 10 D7 01 00
 (2019-06-04 13:09:55.150929)  can0  601   [8]  03 7E 0F 19 00 FC 02 82
 (2019-06-04 13:09:55.151688)  can0  602   [8]  00 1D 00 00 10 D7 01 00
 (2019-06-04 13:09:55.251372)  can0  601   [8]  03 95 0E 19 00 FC 02 85
 (2019-06-04 13:09:55.252129)  can0  602   [8]  00 1E 00 00 10 D7 01 00
 (2019-06-04 13:09:55.355746)  can0  601   [8]  03 C4 0E 19 01 30 02 82
 (2019-06-04 13:09:55.356503)  can0  602   [8]  00 20 00 00 11 D7 01 00
 (2019-06-04 13:09:55.460186)  can0  601   [8]  04 02 0F 19 01 4A 02 82
 (2019-06-04 13:09:55.460939)  can0  602   [8]  00 22 00 00 11 D7 01 00
 (2019-06-04 13:09:55.560522)  can0  601   [8]  04 3D 0F 19 01 4D 02 85
 (2019-06-04 13:09:55.561280)  can0  602   [8]  00 24 00 00 11 D7 01 00
 (2019-06-04 13:09:55.660963)  can0  601   [8]  04 8A 0F 19 01 64 02 82
 (2019-06-04 13:09:55.661718)  can0  602   [8]  00 26 00 00 11 D7 01 00
 (2019-06-04 13:09:55.761329)  can0  601   [8]  04 EF 0F 19 01 8F 02 82
 (2019-06-04 13:09:55.762086)  can0  602   [8]  00 29 00 00 11 D7 01 00
 (2019-06-04 13:09:55.865731)  can0  601   [8]  05 67 0F 19 01 B1 02 82
 (2019-06-04 13:09:55.866488)  can0  602   [8]  00 2D 00 00 11 D7 01 00
 (2019-06-04 13:09:55.970173)  can0  601   [8]  05 E8 0F 19 01 BF 02 82
 (2019-06-04 13:09:55.970930)  can0  602   [8]  00 32 00 00 11 D7 01 00
 (2019-06-04 13:09:56.074689)  can0  601   [8]  06 72 0F 19 01 C2 02 80
 (2019-06-04 13:09:56.075447)  can0  602   [8]  00 36 00 00 11 D7 01 00
 (2019-06-04 13:09:56.179021)  can0  601   [8]  06 FE 0F 19 01 C2 02 80
 (2019-06-04 13:09:56.179776)  can0  602   [8]  00 3A 00 00 11 D7 01 00
 (2019-06-04 13:09:56.279436)  can0  601   [8]  07 8A 0F 19 01 C0 02 80
 (2019-06-04 13:09:56.280190)  can0  602   [8]  00 3F 00 00 11 D7 01 00
 (2019-06-04 13:09:56.383831)  can0  601   [8]  08 1E 0F 19 01 CB 02 80
 (2019-06-04 13:09:56.384672)  can0  602   [8]  00 45 00 00 11 D7 01 00
 (2019-06-04 13:09:56.492258)  can0  601   [8]  08 B8 0F 19 01 CF 02 80
 (2019-06-04 13:09:56.493012)  can0  602   [8]  00 49 00 00 11 D7 01 00
 (2019-06-04 13:09:56.596636)  can0  601   [8]  09 4D 0F 19 01 D0 02 7D
 (2019-06-04 13:09:56.597385)  can0  602   [8]  00 4E 00 00 11 D7 01 00
 (2019-06-04 13:09:56.701084)  can0  601   [8]  09 E1 0F 19 01 D4 02 7D
 (2019-06-04 13:09:56.701842)  can0  602   [8]  00 52 00 00 11 D7 01 00
 (2019-06-04 13:09:56.805487)  can0  601   [8]  0A 74 0F 19 01 D3 02 7D
 (2019-06-04 13:09:56.806244)  can0  602   [8]  00 59 00 00 11 D7 01 00
 (2019-06-04 13:09:56.913958)  can0  601   [8]  0B 0A 0F 19 01 C7 02 7A
 (2019-06-04 13:09:56.914721)  can0  602   [8]  00 5D 00 00 11 D7 01 00
 (2019-06-04 13:09:57.014338)  can0  601   [8]  0B 93 0F 19 01 CE 02 7D
 (2019-06-04 13:09:57.015112)  can0  602   [8]  00 61 00 00 11 D7 01 00
 (2019-06-04 13:09:57.118731)  can0  601   [8]  0C 1A 0F 19 01 D0 02 7A
 (2019-06-04 13:09:57.119484)  can0  602   [8]  00 66 00 00 11 D7 01 00
 (2019-06-04 13:09:57.223130)  can0  601   [8]  0C 9F 0F 19 01 C8 02 7A
 (2019-06-04 13:09:57.223896)  can0  602   [8]  00 6B 00 00 11 D7 01 00
 (2019-06-04 13:09:57.327558)  can0  601   [8]  0D 23 0F 19 01 CB 02 7A
 (2019-06-04 13:09:57.328316)  can0  602   [8]  00 6F 00 00 11 D7 01 00
 (2019-06-04 13:09:57.432134)  can0  601   [8]  0D 47 0F 19 01 3C 02 82
 (2019-06-04 13:09:57.432887)  can0  602   [8]  00 71 00 00 11 D7 03 00
 (2019-06-04 13:09:57.532390)  can0  601   [8]  0C EE 0F 19 00 B8 02 82
 (2019-06-04 13:09:57.533138)  can0  602   [8]  00 6F 00 00 11 D7 01 00
 (2019-06-04 13:09:57.636763)  can0  601   [8]  0C CB 0F 19 00 B1 02 82
 (2019-06-04 13:09:57.637519)  can0  602   [8]  00 6D 00 00 11 D7 01 00
 (2019-06-04 13:09:57.737167)  can0  601   [8]  0C B6 0F 19 00 D8 02 80
 (2019-06-04 13:09:57.737926)  can0  602   [8]  00 6C 00 00 11 D7 01 00
 (2019-06-04 13:09:57.841553)  can0  601   [8]  0C A5 0F 19 00 F4 02 80
 (2019-06-04 13:09:57.842324)  can0  602   [8]  00 6C 00 00 11 D7 01 00
 (2019-06-04 13:09:57.945988)  can0  601   [8]  0C 96 0F 19 00 FF 02 80
 (2019-06-04 13:09:57.946742)  can0  602   [8]  00 6B 00 00 11 D7 01 00
 (2019-06-04 13:09:58.046427)  can0  601   [8]  0C 87 0F 19 01 02 02 80
 (2019-06-04 13:09:58.047186)  can0  602   [8]  00 6B 00 00 11 D7 01 00
 (2019-06-04 13:09:58.150826)  can0  601   [8]  0C 75 0F 19 01 04 02 82
 (2019-06-04 13:09:58.151581)  can0  602   [8]  00 6A 00 00 11 D7 01 00
 (2019-06-04 13:09:58.255297)  can0  601   [8]  0C 66 0F 19 01 05 02 82
 (2019-06-04 13:09:58.256055)  can0  602   [8]  00 6A 00 00 11 D7 01 00
 (2019-06-04 13:09:58.355618)  can0  601   [8]  0C 57 0F 19 01 04 02 82
 (2019-06-04 13:09:58.356374)  can0  602   [8]  00 69 00 00 11 D7 01 00
 (2019-06-04 13:09:58.460014)  can0  601   [8]  0C 4B 0F 19 01 05 02 82
 (2019-06-04 13:09:58.460775)  can0  602   [8]  00 69 00 00 11 D7 01 00
 (2019-06-04 13:09:58.564453)  can0  601   [8]  0C 3D 0E 19 01 03 02 82
 (2019-06-04 13:09:58.565221)  can0  602   [8]  00 68 00 00 11 D7 01 00
 (2019-06-04 13:09:58.664839)  can0  601   [8]  0C 31 0F 19 00 FA 02 82
 (2019-06-04 13:09:58.665593)  can0  602   [8]  00 68 00 00 11 D7 01 00
 (2019-06-04 13:09:58.769275)  can0  601   [8]  0C 20 0F 19 00 FE 02 82
 (2019-06-04 13:09:58.770032)  can0  602   [8]  00 68 00 00 11 D7 01 00
 (2019-06-04 13:09:58.873707)  can0  601   [8]  0C 14 0F 19 00 FC 02 82
 (2019-06-04 13:09:58.874478)  can0  602   [8]  00 67 00 00 11 D7 01 00
 (2019-06-04 13:09:58.978108)  can0  601   [8]  0C 0D 0F 19 01 05 02 82
 (2019-06-04 13:09:58.978866)  can0  602   [8]  00 67 00 00 11 D7 01 00
 (2019-06-04 13:09:59.078497)  can0  601   [8]  0C 07 0F 19 01 09 02 82
 (2019-06-04 13:09:59.079258)  can0  602   [8]  00 67 00 00 11 D7 01 00
 (2019-06-04 13:09:59.182916)  can0  601   [8]  0B FD 0F 19 01 08 02 82
 (2019-06-04 13:09:59.183671)  can0  602   [8]  00 66 00 00 11 D7 01 00
 (2019-06-04 13:09:59.287307)  can0  601   [8]  0B F4 0F 19 01 0C 02 82
 (2019-06-04 13:09:59.288065)  can0  602   [8]  00 66 00 00 11 D7 01 00
 (2019-06-04 13:09:59.387726)  can0  601   [8]  0B ED 0F 19 01 11 02 82
 (2019-06-04 13:09:59.388487)  can0  602   [8]  00 66 00 00 11 D7 01 00
 (2019-06-04 13:09:59.492164)  can0  601   [8]  0B E9 0F 19 01 0C 02 82
 (2019-06-04 13:09:59.492924)  can0  602   [8]  00 66 00 00 11 D7 01 00
 (2019-06-04 13:09:59.596584)  can0  601   [8]  0B E5 0F 19 01 07 02 82
 (2019-06-04 13:09:59.597342)  can0  602   [8]  00 65 00 00 11 D7 01 00
 (2019-06-04 13:09:59.701023)  can0  601   [8]  0B E1 0F 19 01 05 02 82
 (2019-06-04 13:09:59.701779)  can0  602   [8]  00 65 00 00 11 D7 01 00
 (2019-06-04 13:09:59.805380)  can0  601   [8]  0B DC 0F 19 01 08 02 80
 (2019-06-04 13:09:59.806132)  can0  602   [8]  00 65 00 00 11 D7 01 00
 (2019-06-04 13:09:59.909802)  can0  601   [8]  0B DC 0F 19 01 02 02 80
 (2019-06-04 13:09:59.910554)  can0  602   [8]  00 65 00 00 11 D7 01 00
 (2019-06-04 13:10:00.010182)  can0  601   [8]  0B D7 0F 19 01 00 02 82
 (2019-06-04 13:10:00.010938)  can0  602   [8]  00 65 00 00 11 D7 01 00
 (2019-06-04 13:10:00.114844)  can0  601   [8]  0B D4 0F 19 01 08 02 82
 (2019-06-04 13:10:00.115601)  can0  602   [8]  00 65 00 00 11 D7 01 00
 (2019-06-04 13:10:00.219063)  can0  601   [8]  0B D5 0F 19 01 0A 02 80
 (2019-06-04 13:10:00.219811)  can0  602   [8]  00 65 00 00 11 D7 01 00
 (2019-06-04 13:10:00.319397)  can0  601   [8]  0B D3 0F 19 01 0C 02 80
 (2019-06-04 13:10:00.320148)  can0  602   [8]  00 65 00 00 11 D7 01 00
 (2019-06-04 13:10:00.423843)  can0  601   [8]  0B D1 0F 19 01 0E 02 82
 (2019-06-04 13:10:00.424686)  can0  602   [8]  00 65 00 00 11 D7 01 00
 (2019-06-04 13:10:00.532243)  can0  601   [8]  0B CE 0F 19 01 12 02 82
 (2019-06-04 13:10:00.533001)  can0  602   [8]  00 65 00 00 11 D7 01 00
 (2019-06-04 13:10:00.636640)  can0  601   [8]  0B CE 0F 19 01 13 02 82
 (2019-06-04 13:10:00.637387)  can0  602   [8]  00 65 00 00 11 D7 01 00
 (2019-06-04 13:10:00.741051)  can0  601   [8]  0B CD 0F 19 01 0E 02 82
 (2019-06-04 13:10:00.741806)  can0  602   [8]  00 65 00 00 11 D7 01 00
 (2019-06-04 13:10:00.845494)  can0  601   [8]  0B CC 0F 19 01 07 02 82
 (2019-06-04 13:10:00.846251)  can0  602   [8]  00 65 00 00 10 D7 01 00
 (2019-06-04 13:10:00.949881)  can0  601   [8]  0B C5 0F 19 01 01 02 82
 (2019-06-04 13:10:00.950669)  can0  602   [8]  00 64 00 00 10 D7 01 00
 (2019-06-04 13:10:01.054330)  can0  601   [8]  0B BE 0F 19 00 FB 02 82
 (2019-06-04 13:10:01.055101)  can0  602   [8]  00 64 00 00 10 D7 01 00
 (2019-06-04 13:10:01.158705)  can0  601   [8]  0B A3 0F 19 00 C6 02 82
 (2019-06-04 13:10:01.159481)  can0  602   [8]  00 63 00 00 0F D7 03 00
 (2019-06-04 13:10:01.259133)  can0  601   [8]  0B 51 0F 19 00 91 02 85
 (2019-06-04 13:10:01.259888)  can0  602   [8]  00 61 00 00 0F D7 03 00
 (2019-06-04 13:10:01.363523)  can0  601   [8]  0A E6 0F 19 00 C2 02 85
 (2019-06-04 13:10:01.364279)  can0  602   [8]  00 5C 00 00 0F D7 03 00
 (2019-06-04 13:10:01.464021)  can0  601   [8]  0A 84 0F 19 00 C2 02 85
 (2019-06-04 13:10:01.464853)  can0  602   [8]  00 59 00 00 0F D7 03 00
 (2019-06-04 13:10:01.572340)  can0  601   [8]  0A 1B 0F 19 00 BB 02 85
 (2019-06-04 13:10:01.573093)  can0  602   [8]  00 56 00 00 0F D7 03 00
 (2019-06-04 13:10:01.676776)  can0  601   [8]  09 B7 0F 19 00 A7 02 85
 (2019-06-04 13:10:01.677537)  can0  602   [8]  00 53 00 00 0F D7 03 00
 (2019-06-04 13:10:01.777152)  can0  601   [8]  09 5A 0F 19 00 A1 02 85
 (2019-06-04 13:10:01.777910)  can0  602   [8]  00 50 00 00 0F D7 03 00
 (2019-06-04 13:10:01.881547)  can0  601   [8]  08 FB 0F 19 00 A6 02 85
 (2019-06-04 13:10:01.882305)  can0  602   [8]  00 4C 00 00 0F D7 03 00
 (2019-06-04 13:10:01.990059)  can0  601   [8]  08 9A 0F 19 00 CC 02 85
 (2019-06-04 13:10:01.990813)  can0  602   [8]  00 49 00 00 0F D7 03 00
 (2019-06-04 13:10:02.094661)  can0  601   [8]  08 3D 0F 19 00 AF 02 85
 (2019-06-04 13:10:02.095433)  can0  602   [8]  00 46 00 00 0F D7 03 00
 (2019-06-04 13:10:02.194806)  can0  601   [8]  07 E3 0F 19 00 C4 02 85
 (2019-06-04 13:10:02.195564)  can0  602   [8]  00 43 00 00 0F D7 03 00
 (2019-06-04 13:10:02.299210)  can0  601   [8]  07 8B 0F 19 00 A1 02 85
 (2019-06-04 13:10:02.299964)  can0  602   [8]  00 40 00 00 0F D7 03 00
 (2019-06-04 13:10:02.399633)  can0  601   [8]  07 36 0F 19 00 9C 02 85
 (2019-06-04 13:10:02.400383)  can0  602   [8]  00 3D 00 00 0F D7 03 00
 (2019-06-04 13:10:02.500011)  can0  601   [8]  06 E3 0F 19 00 A9 02 85
 (2019-06-04 13:10:02.500769)  can0  602   [8]  00 3A 00 00 0F D7 03 00
 (2019-06-04 13:10:02.604468)  can0  601   [8]  06 8E 0F 19 00 C4 02 85
 (2019-06-04 13:10:02.605253)  can0  602   [8]  00 37 00 00 0F D7 03 00
 (2019-06-04 13:10:02.708874)  can0  601   [8]  06 38 0F 19 00 A7 02 85
 (2019-06-04 13:10:02.709628)  can0  602   [8]  00 34 00 00 0F D7 03 00
 (2019-06-04 13:10:02.809284)  can0  601   [8]  05 EA 0F 19 00 91 02 85
 (2019-06-04 13:10:02.810040)  can0  602   [8]  00 32 00 00 0F D7 03 00
 (2019-06-04 13:10:02.909656)  can0  601   [8]  05 9A 0F 19 00 B6 02 85
 (2019-06-04 13:10:02.910413)  can0  602   [8]  00 2F 00 00 0F D7 03 00
 (2019-06-04 13:10:03.010062)  can0  601   [8]  05 4E 0F 19 00 8D 02 85
 (2019-06-04 13:10:03.010816)  can0  602   [8]  00 2D 00 00 0F D7 03 00
 (2019-06-04 13:10:03.110442)  can0  601   [8]  05 02 0F 19 00 B5 02 85
 (2019-06-04 13:10:03.111203)  can0  602   [8]  00 2A 00 00 0F D7 03 00
 (2019-06-04 13:10:03.210825)  can0  601   [8]  04 B8 0F 19 00 D7 02 85
 (2019-06-04 13:10:03.211579)  can0  602   [8]  00 28 00 00 0F D7 03 00
 (2019-06-04 13:10:03.315299)  can0  601   [8]  04 6C 0F 19 00 C8 02 85
 (2019-06-04 13:10:03.316061)  can0  602   [8]  00 25 00 00 0F D7 03 00
 (2019-06-04 13:10:03.419694)  can0  601   [8]  04 21 0F 19 00 DB 02 85
 (2019-06-04 13:10:03.420446)  can0  602   [8]  00 22 00 00 0F D7 03 00
 (2019-06-04 13:10:03.524181)  can0  601   [8]  03 D7 0F 19 00 B4 02 85
 (2019-06-04 13:10:03.524983)  can0  602   [8]  00 20 00 00 0F D7 03 00
 (2019-06-04 13:10:03.628500)  can0  601   [8]  03 97 0F 19 00 87 02 85
 (2019-06-04 13:10:03.629255)  can0  602   [8]  00 1F 00 00 0F D7 03 00
 (2019-06-04 13:10:03.728883)  can0  601   [8]  03 6B 0F 19 00 76 02 85
 (2019-06-04 13:10:03.729651)  can0  602   [8]  00 1D 00 00 0F D7 03 00
 (2019-06-04 13:10:03.833340)  can0  601   [8]  03 46 0E 19 00 3F 02 85
 (2019-06-04 13:10:03.834196)  can0  602   [8]  00 1C 00 00 0F D7 01 00
 (2019-06-04 13:10:03.937742)  can0  601   [8]  03 27 0E 19 00 34 02 85
 (2019-06-04 13:10:03.938494)  can0  602   [8]  00 1B 00 00 0F D7 01 00
 (2019-06-04 13:10:04.038158)  can0  601   [8]  03 0E 0F 19 00 4B 02 85
 (2019-06-04 13:10:04.038907)  can0  602   [8]  00 1A 00 00 0F D7 01 00
 (2019-06-04 13:10:04.138689)  can0  601   [8]  02 F8 0F 19 00 64 02 85
 (2019-06-04 13:10:04.139445)  can0  602   [8]  00 19 00 00 0F D7 01 00
 (2019-06-04 13:10:04.243011)  can0  601   [8]  02 E5 0E 19 00 73 02 85
 (2019-06-04 13:10:04.243765)  can0  602   [8]  00 19 00 00 0F D7 01 00
 (2019-06-04 13:10:04.343331)  can0  601   [8]  02 D6 0E 19 00 A9 02 85
 (2019-06-04 13:10:04.344175)  can0  602   [8]  00 18 00 00 0F D7 01 00
 (2019-06-04 13:10:04.447760)  can0  601   [8]  02 C9 0E 19 00 9C 02 85
 (2019-06-04 13:10:04.448516)  can0  602   [8]  00 18 00 00 0F D7 01 00
 (2019-06-04 13:10:04.548137)  can0  601   [8]  02 C1 0E 19 00 99 02 85
 (2019-06-04 13:10:04.548895)  can0  602   [8]  00 18 00 00 0F D7 01 00
 (2019-06-04 13:10:04.652543)  can0  601   [8]  02 BC 0E 19 00 BE 02 85
 (2019-06-04 13:10:04.653299)  can0  602   [8]  00 17 00 00 0F D7 01 00
 (2019-06-04 13:10:04.753016)  can0  601   [8]  02 BA 0F 19 00 BD 02 85
 (2019-06-04 13:10:04.753773)  can0  602   [8]  00 17 00 00 0F D7 01 00
 (2019-06-04 13:10:04.857376)  can0  601   [8]  02 B9 0F 19 00 D0 02 85
 (2019-06-04 13:10:04.858126)  can0  602   [8]  00 17 00 00 0F D7 01 00
 (2019-06-04 13:10:04.957731)  can0  601   [8]  02 BB 0E 19 00 CF 02 85
 (2019-06-04 13:10:04.958486)  can0  602   [8]  00 17 00 00 0F D7 01 00
 (2019-06-04 13:10:05.058177)  can0  601   [8]  02 BE 0E 19 00 C5 02 85
 (2019-06-04 13:10:05.058926)  can0  602   [8]  00 17 00 00 0F D7 01 00
 (2019-06-04 13:10:05.162602)  can0  601   [8]  02 BF 0E 19 00 D3 02 85
 (2019-06-04 13:10:05.163359)  can0  602   [8]  00 17 00 00 0F D7 01 00
 (2019-06-04 13:10:05.262993)  can0  601   [8]  02 C3 0E 19 00 D1 02 85
 (2019-06-04 13:10:05.263751)  can0  602   [8]  00 17 00 00 0F D7 01 00
 (2019-06-04 13:10:05.367404)  can0  601   [8]  02 C5 0E 19 00 CD 02 85
 (2019-06-04 13:10:05.368164)  can0  602   [8]  00 17 00 00 0F D7 01 00
 (2019-06-04 13:10:05.467800)  can0  601   [8]  02 C6 0E 19 00 BC 02 85
 (2019-06-04 13:10:05.468583)  can0  602   [8]  00 18 00 00 0F D7 01 00
 (2019-06-04 13:10:05.572213)  can0  601   [8]  02 C6 0E 19 00 C1 02 85
 (2019-06-04 13:10:05.572965)  can0  602   [8]  00 18 00 00 0F D7 01 00
 (2019-06-04 13:10:05.672587)  can0  601   [8]  02 C6 0E 19 00 C0 02 85
 (2019-06-04 13:10:05.673337)  can0  602   [8]  00 18 00 00 0F D7 01 00
 (2019-06-04 13:10:05.776991)  can0  601   [8]  02 C7 0E 19 00 C8 02 85
 (2019-06-04 13:10:05.777748)  can0  602   [8]  00 18 00 00 0F D7 01 00
 (2019-06-04 13:10:05.877412)  can0  601   [8]  02 C7 0E 19 00 C0 02 85
 (2019-06-04 13:10:05.878166)  can0  602   [8]  00 18 00 00 0F D7 01 00
 (2019-06-04 13:10:05.977801)  can0  601   [8]  02 C8 0E 19 00 C6 02 82
 (2019-06-04 13:10:05.978554)  can0  602   [8]  00 18 00 00 0F D7 01 00
 (2019-06-04 13:10:06.082210)  can0  601   [8]  02 C7 0F 19 00 CF 02 85
 (2019-06-04 13:10:06.082967)  can0  602   [8]  00 18 00 00 0F D7 01 00
 (2019-06-04 13:10:06.182763)  can0  601   [8]  02 C7 0E 19 00 AB 02 85
 (2019-06-04 13:10:06.183518)  can0  602   [8]  00 18 00 00 0F D7 01 00
 (2019-06-04 13:10:06.287144)  can0  601   [8]  02 C8 0E 19 00 B8 02 85
 (2019-06-04 13:10:06.287934)  can0  602   [8]  00 18 00 00 0F D7 01 00
 (2019-06-04 13:10:06.387412)  can0  601   [8]  02 C8 0F 19 00 A7 02 85
 (2019-06-04 13:10:06.388172)  can0  602   [8]  00 18 00 00 0F D7 01 00
 (2019-06-04 13:10:06.491836)  can0  601   [8]  02 C8 0E 19 00 AA 02 85
 (2019-06-04 13:10:06.492585)  can0  602   [8]  00 18 00 00 0F D7 01 00
 (2019-06-04 13:10:06.592226)  can0  601   [8]  02 C6 0F 19 00 BF 02 85
 (2019-06-04 13:10:06.592974)  can0  602   [8]  00 18 00 00 0F D7 01 00
 (2019-06-04 13:10:06.696670)  can0  601   [8]  02 C6 0E 19 00 B5 02 85
 (2019-06-04 13:10:06.697426)  can0  602   [8]  00 18 00 00 0F D7 01 00
 (2019-06-04 13:10:06.797098)  can0  601   [8]  02 C5 0F 19 00 B3 02 85
 (2019-06-04 13:10:06.797855)  can0  602   [8]  00 18 00 00 0F D7 01 00
 (2019-06-04 13:10:06.897496)  can0  601   [8]  02 C6 0F 19 00 A4 02 85
 (2019-06-04 13:10:06.898255)  can0  602   [8]  00 18 00 00 0F D7 01 00
 (2019-06-04 13:10:07.001859)  can0  601   [8]  02 C6 0F 19 00 AC 02 85
 (2019-06-04 13:10:07.002615)  can0  602   [8]  00 18 00 00 0F D7 01 00
 (2019-06-04 13:10:07.102252)  can0  601   [8]  02 C6 0F 19 00 B8 02 85
 (2019-06-04 13:10:07.103006)  can0  602   [8]  00 18 00 00 0F D7 01 00
 (2019-06-04 13:10:07.206672)  can0  601   [8]  02 C5 0F 19 00 C7 02 85
 (2019-06-04 13:10:07.207426)  can0  602   [8]  00 18 00 00 0F D7 01 00
 (2019-06-04 13:10:07.307147)  can0  601   [8]  02 C6 0F 19 00 D1 02 85
 (2019-06-04 13:10:07.307900)  can0  602   [8]  00 18 00 00 0F D7 01 00
 (2019-06-04 13:10:07.411533)  can0  601   [8]  02 C6 0E 19 00 C6 02 85
 (2019-06-04 13:10:07.412290)  can0  602   [8]  00 18 00 00 0F D7 01 00
 (2019-06-04 13:10:07.511870)  can0  601   [8]  02 C7 0E 19 00 B9 02 85
 (2019-06-04 13:10:07.512627)  can0  602   [8]  00 18 00 00 0F D7 01 00
 (2019-06-04 13:10:07.616276)  can0  601   [8]  02 C5 0E 19 00 B5 02 85
 (2019-06-04 13:10:07.617028)  can0  602   [8]  00 18 00 00 0F D7 01 00
 (2019-06-04 13:10:07.716731)  can0  601   [8]  02 C6 0E 19 00 B7 02 85
 (2019-06-04 13:10:07.717488)  can0  602   [8]  00 18 00 00 0F D7 01 00
 (2019-06-04 13:10:07.821105)  can0  601   [8]  02 C5 0E 19 00 D6 02 85
 (2019-06-04 13:10:07.821860)  can0  602   [8]  00 18 00 00 0F D7 01 00
 (2019-06-04 13:10:07.921511)  can0  601   [8]  02 C5 0E 19 00 CF 02 85
 (2019-06-04 13:10:07.922268)  can0  602   [8]  00 18 00 00 0F D7 01 00
 (2019-06-04 13:10:08.021913)  can0  601   [8]  02 C5 0E 19 00 9B 02 85
 (2019-06-04 13:10:08.022666)  can0  602   [8]  00 18 00 00 0F D7 01 00
 (2019-06-04 13:10:08.126306)  can0  601   [8]  02 C4 0E 19 00 A6 02 85
 (2019-06-04 13:10:08.127059)  can0  602   [8]  00 18 00 00 0F D7 01 00
 (2019-06-04 13:10:08.230737)  can0  601   [8]  02 C5 0E 19 00 B4 02 85
 (2019-06-04 13:10:08.231485)  can0  602   [8]  00 18 00 00 0F D7 01 00
 (2019-06-04 13:10:08.331124)  can0  601   [8]  02 C6 0E 19 00 B8 02 85
 (2019-06-04 13:10:08.331882)  can0  602   [8]  00 18 00 00 0F D7 01 00
 (2019-06-04 13:10:08.431517)  can0  601   [8]  02 C6 0E 19 00 BB 02 85
 (2019-06-04 13:10:08.432274)  can0  602   [8]  00 18 00 00 0F D7 01 00
 (2019-06-04 13:10:08.535983)  can0  601   [8]  02 C5 0E 19 00 B9 02 85
 (2019-06-04 13:10:08.536738)  can0  602   [8]  00 18 00 00 0F D7 01 00
 (2019-06-04 13:10:08.636335)  can0  601   [8]  02 C6 0E 19 00 A4 02 85
 (2019-06-04 13:10:08.637090)  can0  602   [8]  00 18 00 00 0F D7 01 00
 (2019-06-04 13:10:08.740741)  can0  601   [8]  02 C5 0E 19 00 B0 02 85
 (2019-06-04 13:10:08.741497)  can0  602   [8]  00 18 00 00 0F D7 01 00
 (2019-06-04 13:10:08.841203)  can0  601   [8]  02 C6 0E 19 00 B6 02 85
 (2019-06-04 13:10:08.841956)  can0  602   [8]  00 18 00 00 0F D7 01 00
 (2019-06-04 13:10:08.945550)  can0  601   [8]  02 C5 0E 19 00 AB 02 85
 (2019-06-04 13:10:08.946306)  can0  602   [8]  00 18 00 00 0F D7 01 00
 (2019-06-04 13:10:09.045954)  can0  601   [8]  02 C5 0E 19 00 AE 02 85
 (2019-06-04 13:10:09.046709)  can0  602   [8]  00 18 00 00 0F D7 01 00
 (2019-06-04 13:10:09.150373)  can0  601   [8]  02 C4 0E 19 00 AA 02 85
 (2019-06-04 13:10:09.151124)  can0  602   [8]  00 18 00 00 0F D7 01 00
 (2019-06-04 13:10:09.250795)  can0  601   [8]  02 C4 0E 19 00 B4 02 85
 (2019-06-04 13:10:09.251557)  can0  602   [8]  00 18 00 00 0F D7 01 00
 (2019-06-04 13:10:09.351218)  can0  601   [8]  02 C6 0E 19 00 B9 02 85
 (2019-06-04 13:10:09.351976)  can0  602   [8]  00 18 00 00 0F D7 01 00
 (2019-06-04 13:10:09.455611)  can0  601   [8]  02 C8 0E 19 00 BA 02 85
 (2019-06-04 13:10:09.456363)  can0  602   [8]  00 18 00 00 0F D7 01 00
 (2019-06-04 13:10:09.555983)  can0  601   [8]  02 CB 0E 19 00 BC 02 85
 (2019-06-04 13:10:09.556769)  can0  602   [8]  00 18 00 00 0F D7 01 00
 (2019-06-04 13:10:09.660405)  can0  601   [8]  02 CF 0E 19 00 B5 02 85
 (2019-06-04 13:10:09.661158)  can0  602   [8]  00 18 00 00 0F D7 01 00
 (2019-06-04 13:10:09.760781)  can0  601   [8]  02 D4 0E 19 00 DE 02 85
 (2019-06-04 13:10:09.761531)  can0  602   [8]  00 18 00 00 0F D7 01 00
 (2019-06-04 13:10:09.865233)  can0  601   [8]  02 D8 0E 19 00 C3 02 85
 (2019-06-04 13:10:09.865993)  can0  602   [8]  00 18 00 00 0F D7 01 00
 (2019-06-04 13:10:09.965642)  can0  601   [8]  02 DB 0E 19 00 B0 02 85
 (2019-06-04 13:10:09.966399)  can0  602   [8]  00 18 00 00 0F D7 01 00
 (2019-06-04 13:10:10.070072)  can0  601   [8]  02 DC 0E 19 00 B7 02 85
 (2019-06-04 13:10:10.070824)  can0  602   [8]  00 18 00 00 0F D7 01 00
 (2019-06-04 13:10:10.170397)  can0  601   [8]  02 DD 0E 19 00 9B 02 85
 (2019-06-04 13:10:10.171153)  can0  602   [8]  00 18 00 00 0F D7 01 00
 (2019-06-04 13:10:10.270806)  can0  601   [8]  02 E3 0E 19 00 BD 02 85
 (2019-06-04 13:10:10.271563)  can0  602   [8]  00 19 00 00 0F D7 01 00
 (2019-06-04 13:10:10.375194)  can0  601   [8]  02 E6 0E 19 00 C2 02 85
 (2019-06-04 13:10:10.375944)  can0  602   [8]  00 19 00 00 0F D7 01 00
 (2019-06-04 13:10:10.479655)  can0  601   [8]  02 EA 0E 19 00 D0 02 85
 (2019-06-04 13:10:10.480407)  can0  602   [8]  00 19 00 00 0F D7 01 00
 (2019-06-04 13:10:10.580101)  can0  601   [8]  02 EE 0E 19 00 BB 02 85
 (2019-06-04 13:10:10.580856)  can0  602   [8]  00 19 00 00 0F D7 01 00
 (2019-06-04 13:10:10.684523)  can0  601   [8]  02 F1 0E 19 00 A6 02 85
 (2019-06-04 13:10:10.685305)  can0  602   [8]  00 19 00 00 0F D7 01 00
 (2019-06-04 13:10:10.784879)  can0  601   [8]  02 F2 0E 19 00 B9 02 85
 (2019-06-04 13:10:10.785636)  can0  602   [8]  00 19 00 00 0F D7 01 00
 (2019-06-04 13:10:10.885309)  can0  601   [8]  02 F3 0E 19 00 C0 02 85
 (2019-06-04 13:10:10.886070)  can0  602   [8]  00 19 00 00 0F D7 01 00
 (2019-06-04 13:10:10.989648)  can0  601   [8]  02 F4 0E 19 00 AE 02 85
 (2019-06-04 13:10:10.990404)  can0  602   [8]  00 19 00 00 0F D7 01 00
 (2019-06-04 13:10:11.090067)  can0  601   [8]  02 F5 0E 19 00 C7 02 85
 (2019-06-04 13:10:11.090824)  can0  602   [8]  00 19 00 00 0F D7 01 00
 (2019-06-04 13:10:11.194612)  can0  601   [8]  02 F4 0E 19 00 B7 02 85
 (2019-06-04 13:10:11.195381)  can0  602   [8]  00 19 00 00 0F D7 01 00
 (2019-06-04 13:10:11.294864)  can0  601   [8]  02 F4 0E 19 00 B3 02 85
 (2019-06-04 13:10:11.295616)  can0  602   [8]  00 19 00 00 0F D7 01 00
 (2019-06-04 13:10:11.399276)  can0  601   [8]  02 F4 0E 19 00 AE 02 85
 (2019-06-04 13:10:11.400034)  can0  602   [8]  00 19 00 00 0F D7 01 00
 (2019-06-04 13:10:11.499688)  can0  601   [8]  02 F3 0E 19 00 C1 02 85
 (2019-06-04 13:10:11.500448)  can0  602   [8]  00 19 00 00 0F D7 01 00
 (2019-06-04 13:10:11.604157)  can0  601   [8]  02 F7 0E 19 00 E2 02 85
 (2019-06-04 13:10:11.604974)  can0  602   [8]  00 19 00 00 0F D7 01 00
 (2019-06-04 13:10:11.704519)  can0  601   [8]  03 00 0E 19 00 DD 02 85
 (2019-06-04 13:10:11.705300)  can0  602   [8]  00 19 00 00 0F D7 01 00
 (2019-06-04 13:10:11.808942)  can0  601   [8]  03 09 0E 19 00 D9 02 85
 (2019-06-04 13:10:11.809696)  can0  602   [8]  00 1A 00 00 0F D7 01 00
 (2019-06-04 13:10:11.909334)  can0  601   [8]  03 0E 0E 19 00 DB 02 85
 (2019-06-04 13:10:11.910093)  can0  602   [8]  00 1A 00 00 0F D7 01 00
 (2019-06-04 13:10:12.013714)  can0  601   [8]  03 14 0E 19 00 CA 02 85
 (2019-06-04 13:10:12.014466)  can0  602   [8]  00 1A 00 00 0F D7 01 00
 (2019-06-04 13:10:12.114199)  can0  601   [8]  03 1A 0E 19 00 BF 02 85
 (2019-06-04 13:10:12.114966)  can0  602   [8]  00 1A 00 00 0F D7 01 00
 (2019-06-04 13:10:12.218547)  can0  601   [8]  03 1E 0E 19 00 B5 02 85
 (2019-06-04 13:10:12.219300)  can0  602   [8]  00 1B 00 00 0F D7 01 00
 (2019-06-04 13:10:12.318937)  can0  601   [8]  03 24 0E 19 00 C3 02 85
 (2019-06-04 13:10:12.319694)  can0  602   [8]  00 1B 00 00 0F D7 01 00
 (2019-06-04 13:10:12.419317)  can0  601   [8]  03 28 0E 19 00 CF 02 85
 (2019-06-04 13:10:12.420072)  can0  602   [8]  00 1B 00 00 0F D7 01 00
 (2019-06-04 13:10:12.523737)  can0  601   [8]  03 2B 0E 19 00 BE 02 85
 (2019-06-04 13:10:12.524512)  can0  602   [8]  00 1B 00 00 0F D7 01 00
 (2019-06-04 13:10:12.624186)  can0  601   [8]  03 2E 0E 19 00 D1 02 85
 (2019-06-04 13:10:12.624963)  can0  602   [8]  00 1B 00 00 0F D7 01 00
 (2019-06-04 13:10:12.728592)  can0  601   [8]  03 31 0E 19 00 B1 02 85
 (2019-06-04 13:10:12.729347)  can0  602   [8]  00 1B 00 00 0F D7 01 00
 (2019-06-04 13:10:12.828902)  can0  601   [8]  03 35 0E 19 00 CE 02 85
 (2019-06-04 13:10:12.829659)  can0  602   [8]  00 1B 00 00 0F D7 01 00
 (2019-06-04 13:10:12.933386)  can0  601   [8]  03 37 0E 19 00 D2 02 85
 (2019-06-04 13:10:12.934210)  can0  602   [8]  00 1B 00 00 0F D7 01 00
 (2019-06-04 13:10:13.033798)  can0  601   [8]  03 39 0E 19 00 BF 02 85
 (2019-06-04 13:10:13.034566)  can0  602   [8]  00 1B 00 00 0F D7 01 00
 (2019-06-04 13:10:13.138170)  can0  601   [8]  03 3B 0E 19 00 C8 02 85
 (2019-06-04 13:10:13.138926)  can0  602   [8]  00 1B 00 00 0F D7 01 00
 (2019-06-04 13:10:13.238607)  can0  601   [8]  03 42 0E 19 00 C0 02 85
 (2019-06-04 13:10:13.239359)  can0  602   [8]  00 1C 00 00 10 D7 01 00
 (2019-06-04 13:10:13.343028)  can0  601   [8]  03 4E 0E 19 00 D7 02 85
 (2019-06-04 13:10:13.343784)  can0  602   [8]  00 1C 00 00 10 D7 01 00
 (2019-06-04 13:10:13.443403)  can0  601   [8]  03 56 0E 19 00 DC 02 85
 (2019-06-04 13:10:13.444229)  can0  602   [8]  00 1C 00 00 10 D7 01 00
 (2019-06-04 13:10:13.547813)  can0  601   [8]  03 60 0E 19 00 D4 02 85
 (2019-06-04 13:10:13.548563)  can0  602   [8]  00 1D 00 00 10 D7 01 00
 (2019-06-04 13:10:13.648178)  can0  601   [8]  03 64 0E 19 00 CC 02 85
 (2019-06-04 13:10:13.648934)  can0  602   [8]  00 1D 00 00 10 D7 01 00
 (2019-06-04 13:10:13.752599)  can0  601   [8]  03 67 0E 19 00 CB 02 82
 (2019-06-04 13:10:13.753355)  can0  602   [8]  00 1D 00 00 10 D7 01 00
 (2019-06-04 13:10:13.853075)  can0  601   [8]  03 6B 0E 19 00 C0 02 85
 (2019-06-04 13:10:13.853835)  can0  602   [8]  00 1D 00 00 10 D7 01 00
 (2019-06-04 13:10:13.957461)  can0  601   [8]  03 6E 0E 19 00 D1 02 85
 (2019-06-04 13:10:13.958219)  can0  602   [8]  00 1D 00 00 10 D7 01 00
 (2019-06-04 13:10:14.057830)  can0  601   [8]  03 72 0E 19 00 D5 02 85
 (2019-06-04 13:10:14.058585)  can0  602   [8]  00 1D 00 00 10 D7 01 00
 (2019-06-04 13:10:14.158232)  can0  601   [8]  03 74 0E 19 00 DA 02 85
 (2019-06-04 13:10:14.158997)  can0  602   [8]  00 1D 00 00 10 D7 01 00
 (2019-06-04 13:10:14.262656)  can0  601   [8]  03 7A 0E 19 00 D0 02 85
 (2019-06-04 13:10:14.263417)  can0  602   [8]  00 1E 00 00 10 D7 01 00
 (2019-06-04 13:10:14.363038)  can0  601   [8]  03 80 0E 19 00 C6 02 85
 (2019-06-04 13:10:14.363795)  can0  602   [8]  00 1E 00 00 10 D7 01 00
 (2019-06-04 13:10:14.467512)  can0  601   [8]  03 84 0E 19 00 E0 02 82
 (2019-06-04 13:10:14.468279)  can0  602   [8]  00 1E 00 00 10 D7 01 00
 (2019-06-04 13:10:14.567838)  can0  601   [8]  03 88 0E 19 00 CE 02 85
 (2019-06-04 13:10:14.568591)  can0  602   [8]  00 1E 00 00 10 D7 01 00
 (2019-06-04 13:10:14.672260)  can0  601   [8]  03 8A 0E 19 00 C2 02 85
 (2019-06-04 13:10:14.673021)  can0  602   [8]  00 1E 00 00 10 D7 01 00
 (2019-06-04 13:10:14.772646)  can0  601   [8]  03 8D 0E 19 00 CE 02 85
 (2019-06-04 13:10:14.773402)  can0  602   [8]  00 1E 00 00 10 D7 01 00
 (2019-06-04 13:10:14.877058)  can0  601   [8]  03 8D 0E 19 00 B7 02 85
 (2019-06-04 13:10:14.877819)  can0  602   [8]  00 1E 00 00 10 D7 01 00
 (2019-06-04 13:10:14.977486)  can0  601   [8]  03 90 0E 19 00 AC 02 85
 (2019-06-04 13:10:14.978247)  can0  602   [8]  00 1E 00 00 10 D7 01 00
 (2019-06-04 13:10:15.081925)  can0  601   [8]  03 8E 0E 19 00 C3 02 85
 (2019-06-04 13:10:15.082676)  can0  602   [8]  00 1E 00 00 10 D7 01 00
 (2019-06-04 13:10:15.182289)  can0  601   [8]  03 8E 0E 19 00 D0 02 85
 (2019-06-04 13:10:15.183040)  can0  602   [8]  00 1E 00 00 10 D7 01 00
 (2019-06-04 13:10:15.286710)  can0  601   [8]  03 8F 0E 19 00 C6 02 85
 (2019-06-04 13:10:15.287466)  can0  602   [8]  00 1E 00 00 10 D7 01 00
 (2019-06-04 13:10:15.387130)  can0  601   [8]  03 8F 0E 19 00 CF 02 85
 (2019-06-04 13:10:15.387898)  can0  602   [8]  00 1E 00 00 10 D7 01 00
 (2019-06-04 13:10:15.487483)  can0  601   [8]  03 8E 0E 19 00 D9 02 85
 (2019-06-04 13:10:15.488241)  can0  602   [8]  00 1E 00 00 10 D7 01 00
 (2019-06-04 13:10:15.591876)  can0  601   [8]  03 8E 0E 19 00 C1 02 85
 (2019-06-04 13:10:15.592634)  can0  602   [8]  00 1E 00 00 10 D7 01 00
 (2019-06-04 13:10:15.696428)  can0  601   [8]  03 8D 0E 19 00 BA 02 85
 (2019-06-04 13:10:15.697184)  can0  602   [8]  00 1E 00 00 10 D7 01 00
 (2019-06-04 13:10:15.796739)  can0  601   [8]  03 8D 0E 19 00 BA 02 85
 (2019-06-04 13:10:15.797497)  can0  602   [8]  00 1E 00 00 10 D7 01 00
 (2019-06-04 13:10:15.901108)  can0  601   [8]  03 8D 0E 19 00 C0 02 85
 (2019-06-04 13:10:15.901859)  can0  602   [8]  00 1E 00 00 10 D7 01 00
 (2019-06-04 13:10:16.001511)  can0  601   [8]  03 8C 0E 19 00 BF 02 82
 (2019-06-04 13:10:16.002261)  can0  602   [8]  00 1E 00 00 10 D7 01 00
 (2019-06-04 13:10:16.101921)  can0  601   [8]  03 91 0E 19 00 BC 02 85
 (2019-06-04 13:10:16.102672)  can0  602   [8]  00 1E 00 00 10 D7 01 00
 (2019-06-04 13:10:16.206359)  can0  601   [8]  03 A1 0E 19 00 ED 02 85
 (2019-06-04 13:10:16.207115)  can0  602   [8]  00 1F 00 00 10 D7 01 00
 (2019-06-04 13:10:16.310784)  can0  601   [8]  03 B3 0E 19 00 F3 02 82
 (2019-06-04 13:10:16.311540)  can0  602   [8]  00 1F 00 00 10 D7 01 00
 (2019-06-04 13:10:16.411144)  can0  601   [8]  03 C2 0E 19 00 EB 02 85
 (2019-06-04 13:10:16.411901)  can0  602   [8]  00 20 00 00 10 D7 01 00
 (2019-06-04 13:10:16.511583)  can0  601   [8]  03 CE 0E 19 00 E2 02 85
 (2019-06-04 13:10:16.512337)  can0  602   [8]  00 20 00 00 10 D7 01 00
 (2019-06-04 13:10:16.616004)  can0  601   [8]  03 D7 0E 19 00 DB 02 85
 (2019-06-04 13:10:16.616760)  can0  602   [8]  00 21 00 00 10 D7 01 00
 (2019-06-04 13:10:16.716347)  can0  601   [8]  03 DD 0E 19 00 C7 02 85
 (2019-06-04 13:10:16.717102)  can0  602   [8]  00 21 00 00 10 D7 01 00
 (2019-06-04 13:10:16.820769)  can0  601   [8]  03 DF 0E 19 00 CC 02 85
 (2019-06-04 13:10:16.821527)  can0  602   [8]  00 21 00 00 10 D7 01 00
 (2019-06-04 13:10:16.921179)  can0  601   [8]  03 E1 0E 19 00 D7 02 82
 (2019-06-04 13:10:16.921935)  can0  602   [8]  00 21 00 00 10 D7 01 00
 (2019-06-04 13:10:17.025595)  can0  601   [8]  03 E1 0E 19 00 DF 02 85
 (2019-06-04 13:10:17.026353)  can0  602   [8]  00 21 00 00 10 D7 01 00
 (2019-06-04 13:10:17.126021)  can0  601   [8]  03 E0 0E 19 00 CC 02 85
 (2019-06-04 13:10:17.126778)  can0  602   [8]  00 21 00 00 10 D7 01 00
 (2019-06-04 13:10:17.230571)  can0  601   [8]  03 E0 0E 19 00 BA 02 85
 (2019-06-04 13:10:17.231327)  can0  602   [8]  00 21 00 00 10 D7 01 00
 (2019-06-04 13:10:17.330817)  can0  601   [8]  03 DF 0E 19 00 B9 02 85
 (2019-06-04 13:10:17.331572)  can0  602   [8]  00 21 00 00 10 D7 01 00
 (2019-06-04 13:10:17.435253)  can0  601   [8]  03 DD 0E 19 00 BE 02 85
 (2019-06-04 13:10:17.436018)  can0  602   [8]  00 21 00 00 10 D7 01 00
 (2019-06-04 13:10:17.535588)  can0  601   [8]  03 DD 0E 19 00 C6 02 85
 (2019-06-04 13:10:17.536336)  can0  602   [8]  00 21 00 00 10 D7 01 00
 (2019-06-04 13:10:17.640008)  can0  601   [8]  03 DC 0E 19 00 B0 02 85
 (2019-06-04 13:10:17.640763)  can0  602   [8]  00 21 00 00 10 D7 01 00
 (2019-06-04 13:10:17.740592)  can0  601   [8]  03 DB 0E 19 00 CF 02 85
 (2019-06-04 13:10:17.741344)  can0  602   [8]  00 21 00 00 10 D7 01 00
 (2019-06-04 13:10:17.844885)  can0  601   [8]  03 DA 0E 19 00 B8 02 85
 (2019-06-04 13:10:17.845646)  can0  602   [8]  00 21 00 00 10 D7 01 00
 (2019-06-04 13:10:17.945203)  can0  601   [8]  03 DB 0E 19 00 D1 02 85
 (2019-06-04 13:10:17.945961)  can0  602   [8]  00 21 00 00 10 D7 01 00
 (2019-06-04 13:10:18.049639)  can0  601   [8]  03 DA 0E 19 00 C7 02 85
 (2019-06-04 13:10:18.050392)  can0  602   [8]  00 21 00 00 10 D7 01 00
 (2019-06-04 13:10:18.150028)  can0  601   [8]  03 DA 0E 19 00 C5 02 85
 (2019-06-04 13:10:18.150784)  can0  602   [8]  00 21 00 00 10 D7 01 00
 (2019-06-04 13:10:18.250442)  can0  601   [8]  03 DA 0E 19 00 CC 02 82
 (2019-06-04 13:10:18.251213)  can0  602   [8]  00 21 00 00 10 D7 01 00
 (2019-06-04 13:10:18.354865)  can0  601   [8]  03 D9 0E 19 00 BE 02 82
 (2019-06-04 13:10:18.355620)  can0  602   [8]  00 21 00 00 10 D7 01 00
 (2019-06-04 13:10:18.459282)  can0  601   [8]  03 DA 0E 19 00 C7 02 85
 (2019-06-04 13:10:18.460037)  can0  602   [8]  00 21 00 00 10 D7 01 00
 (2019-06-04 13:10:18.559678)  can0  601   [8]  03 DB 0E 19 00 B9 02 85
 (2019-06-04 13:10:18.560431)  can0  602   [8]  00 21 00 00 10 D7 01 00
 (2019-06-04 13:10:18.664134)  can0  601   [8]  03 DB 0E 19 00 C7 02 82
 (2019-06-04 13:10:18.664939)  can0  602   [8]  00 21 00 00 10 D7 01 00
 (2019-06-04 13:10:18.764488)  can0  601   [8]  03 DC 0E 19 00 C1 02 85
 (2019-06-04 13:10:18.765248)  can0  602   [8]  00 21 00 00 10 D7 01 00
 (2019-06-04 13:10:18.864891)  can0  601   [8]  03 DD 0E 19 00 BE 02 82
 (2019-06-04 13:10:18.865649)  can0  602   [8]  00 21 00 00 10 D7 01 00
 (2019-06-04 13:10:18.969306)  can0  601   [8]  03 DC 0E 19 00 B4 02 85
 (2019-06-04 13:10:18.970058)  can0  602   [8]  00 21 00 00 10 D7 01 00
 (2019-06-04 13:10:19.069646)  can0  601   [8]  03 DB 0E 19 00 C3 02 85
 (2019-06-04 13:10:19.070399)  can0  602   [8]  00 21 00 00 10 D7 01 00
 (2019-06-04 13:10:19.174143)  can0  601   [8]  03 DD 0E 19 00 D6 02 85
 (2019-06-04 13:10:19.174920)  can0  602   [8]  00 21 00 00 10 D7 01 00
 (2019-06-04 13:10:19.274519)  can0  601   [8]  03 DD 0E 19 00 C4 02 85
 (2019-06-04 13:10:19.275300)  can0  602   [8]  00 21 00 00 10 D7 01 00
 (2019-06-04 13:10:19.378927)  can0  601   [8]  03 DB 0E 19 00 B8 02 85
 (2019-06-04 13:10:19.379685)  can0  602   [8]  00 21 00 00 10 D7 01 00
 (2019-06-04 13:10:19.479305)  can0  601   [8]  03 DC 0E 19 00 C7 02 85
 (2019-06-04 13:10:19.480061)  can0  602   [8]  00 21 00 00 10 D7 01 00
 (2019-06-04 13:10:19.583731)  can0  601   [8]  03 DC 0E 19 00 BD 02 85
 (2019-06-04 13:10:19.584488)  can0  602   [8]  00 21 00 00 10 D7 01 00
 (2019-06-04 13:10:19.684189)  can0  601   [8]  03 DB 0E 19 00 BC 02 85
 (2019-06-04 13:10:19.685018)  can0  602   [8]  00 21 00 00 10 D7 01 00
 (2019-06-04 13:10:19.788547)  can0  601   [8]  03 DB 0E 19 00 B7 02 82
 (2019-06-04 13:10:19.789294)  can0  602   [8]  00 21 00 00 10 D7 01 00
 (2019-06-04 13:10:19.888977)  can0  601   [8]  03 DB 0E 19 00 BC 02 85
 (2019-06-04 13:10:19.889729)  can0  602   [8]  00 21 00 00 10 D7 01 00
 (2019-06-04 13:10:19.993328)  can0  601   [8]  03 DB 0E 19 00 AB 02 85
 (2019-06-04 13:10:19.994162)  can0  602   [8]  00 21 00 00 10 D7 01 00
 (2019-06-04 13:10:20.093729)  can0  601   [8]  03 DC 0E 19 00 C2 02 85
 (2019-06-04 13:10:20.094497)  can0  602   [8]  00 21 00 00 10 D7 01 00
 (2019-06-04 13:10:20.198203)  can0  601   [8]  03 DC 0E 19 00 CF 02 85
 (2019-06-04 13:10:20.198965)  can0  602   [8]  00 21 00 00 10 D7 01 00
 (2019-06-04 13:10:20.298551)  can0  601   [8]  03 DB 0E 19 00 BB 02 82
 (2019-06-04 13:10:20.299311)  can0  602   [8]  00 21 00 00 10 D7 01 00
 (2019-06-04 13:10:20.402964)  can0  601   [8]  03 DB 0E 19 00 B4 02 85
 (2019-06-04 13:10:20.403717)  can0  602   [8]  00 21 00 00 10 D7 01 00
 (2019-06-04 13:10:20.503421)  can0  601   [8]  03 E1 0E 19 00 BC 02 85
 (2019-06-04 13:10:20.504269)  can0  602   [8]  00 21 00 00 10 D7 01 00
 (2019-06-04 13:10:20.603753)  can0  601   [8]  03 EA 0E 19 00 D9 02 85
 (2019-06-04 13:10:20.604514)  can0  602   [8]  00 21 00 00 10 D7 01 00
 (2019-06-04 13:10:20.708162)  can0  601   [8]  03 F5 0E 19 00 E0 02 85
 (2019-06-04 13:10:20.708923)  can0  602   [8]  00 22 00 00 10 D7 01 00
 (2019-06-04 13:10:20.808592)  can0  601   [8]  04 00 0E 19 00 E0 02 85
 (2019-06-04 13:10:20.809350)  can0  602   [8]  00 22 00 00 10 D7 01 00
 (2019-06-04 13:10:20.908949)  can0  601   [8]  04 0C 0E 19 00 E5 02 85
 (2019-06-04 13:10:20.909709)  can0  602   [8]  00 22 00 00 10 D7 01 00
 (2019-06-04 13:10:21.009362)  can0  601   [8]  04 19 0E 19 00 DD 02 85
 (2019-06-04 13:10:21.010119)  can0  602   [8]  00 23 00 00 10 D7 01 00
 (2019-06-04 13:10:21.109780)  can0  601   [8]  04 27 0E 19 00 E7 02 82
 (2019-06-04 13:10:21.110539)  can0  602   [8]  00 23 00 00 10 D7 01 00
 (2019-06-04 13:10:21.210168)  can0  601   [8]  04 35 0E 19 00 E3 02 85
 (2019-06-04 13:10:21.210926)  can0  602   [8]  00 24 00 00 10 D7 01 00
 (2019-06-04 13:10:21.310614)  can0  601   [8]  04 42 0E 19 00 E4 02 85
 (2019-06-04 13:10:21.311373)  can0  602   [8]  00 24 00 00 10 D7 01 00
 (2019-06-04 13:10:21.410948)  can0  601   [8]  04 50 0E 19 00 E5 02 85
 (2019-06-04 13:10:21.411699)  can0  602   [8]  00 25 00 00 10 D7 01 00
 (2019-06-04 13:10:21.511315)  can0  601   [8]  04 5C 0E 19 00 E1 02 85
 (2019-06-04 13:10:21.512070)  can0  602   [8]  00 25 00 00 10 D7 01 00
 (2019-06-04 13:10:21.615742)  can0  601   [8]  04 6B 0E 19 00 E3 02 85
 (2019-06-04 13:10:21.616500)  can0  602   [8]  00 26 00 00 10 D7 01 00
 (2019-06-04 13:10:21.720142)  can0  601   [8]  04 77 0E 19 00 E1 02 82
 (2019-06-04 13:10:21.720896)  can0  602   [8]  00 26 00 00 10 D7 01 00
 (2019-06-04 13:10:21.824642)  can0  601   [8]  04 85 0E 19 00 E5 02 85
 (2019-06-04 13:10:21.825393)  can0  602   [8]  00 26 00 00 10 D7 01 00
 (2019-06-04 13:10:21.924957)  can0  601   [8]  04 92 0E 19 00 E6 02 82
 (2019-06-04 13:10:21.925714)  can0  602   [8]  00 27 00 00 10 D7 01 00
 (2019-06-04 13:10:22.025388)  can0  601   [8]  04 9F 0E 19 00 E1 02 85
 (2019-06-04 13:10:22.026146)  can0  602   [8]  00 27 00 00 10 D7 01 00
 (2019-06-04 13:10:22.133819)  can0  601   [8]  04 AE 0E 19 00 E4 02 82
 (2019-06-04 13:10:22.134663)  can0  602   [8]  00 28 00 00 10 D7 01 00
 (2019-06-04 13:10:22.234280)  can0  601   [8]  04 BA 0E 19 00 E1 02 85
 (2019-06-04 13:10:22.235054)  can0  602   [8]  00 28 00 00 10 D7 01 00
 (2019-06-04 13:10:22.334702)  can0  601   [8]  04 C7 0E 19 00 E2 02 82
 (2019-06-04 13:10:22.335458)  can0  602   [8]  00 29 00 00 10 D7 01 00
 (2019-06-04 13:10:22.435049)  can0  601   [8]  04 D4 0E 19 00 E4 02 82
 (2019-06-04 13:10:22.435808)  can0  602   [8]  00 29 00 00 10 D7 01 00
 (2019-06-04 13:10:22.535420)  can0  601   [8]  04 E0 0E 19 00 E5 02 82
 (2019-06-04 13:10:22.536174)  can0  602   [8]  00 29 00 00 10 D7 01 00
 (2019-06-04 13:10:22.639848)  can0  601   [8]  04 EC 0E 19 00 E4 02 82
 (2019-06-04 13:10:22.640599)  can0  602   [8]  00 2A 00 00 10 D7 01 00
 (2019-06-04 13:10:22.740224)  can0  601   [8]  04 F8 0E 19 00 E5 02 82
 (2019-06-04 13:10:22.740971)  can0  602   [8]  00 2A 00 00 10 D7 01 00
 (2019-06-04 13:10:22.840627)  can0  601   [8]  05 02 0E 19 00 DD 02 85
 (2019-06-04 13:10:22.841378)  can0  602   [8]  00 2B 00 00 10 D7 01 00
 (2019-06-04 13:10:22.945078)  can0  601   [8]  05 0F 0E 19 00 E4 02 82
 (2019-06-04 13:10:22.945832)  can0  602   [8]  00 2B 00 00 10 D7 01 00
 (2019-06-04 13:10:23.045448)  can0  601   [8]  05 19 0E 19 00 E3 02 82
 (2019-06-04 13:10:23.046205)  can0  602   [8]  00 2B 00 00 10 D7 01 00
 (2019-06-04 13:10:23.149835)  can0  601   [8]  05 26 0E 19 00 E4 02 85
 (2019-06-04 13:10:23.150594)  can0  602   [8]  00 2C 00 00 10 D7 01 00
 (2019-06-04 13:10:23.250272)  can0  601   [8]  05 31 0E 19 00 E3 02 82
 (2019-06-04 13:10:23.251027)  can0  602   [8]  00 2C 00 00 10 D7 01 00
 (2019-06-04 13:10:23.354709)  can0  601   [8]  05 3C 0E 19 00 E2 02 82
 (2019-06-04 13:10:23.355478)  can0  602   [8]  00 2D 00 00 10 D7 01 00
 (2019-06-04 13:10:23.455075)  can0  601   [8]  05 48 0E 19 00 E1 02 85
 (2019-06-04 13:10:23.455827)  can0  602   [8]  00 2D 00 00 10 D7 01 00
 (2019-06-04 13:10:23.555485)  can0  601   [8]  05 53 0E 19 00 EA 02 82
 (2019-06-04 13:10:23.556239)  can0  602   [8]  00 2D 00 00 10 D7 01 00
 (2019-06-04 13:10:23.659885)  can0  601   [8]  05 5D 0E 19 00 DF 02 85
 (2019-06-04 13:10:23.660655)  can0  602   [8]  00 2E 00 00 10 D7 01 00
 (2019-06-04 13:10:23.760294)  can0  601   [8]  05 66 0E 19 00 E1 02 85
 (2019-06-04 13:10:23.761047)  can0  602   [8]  00 2E 00 00 10 D7 01 00
 (2019-06-04 13:10:23.864823)  can0  601   [8]  05 70 0E 19 00 DA 02 82
 (2019-06-04 13:10:23.865588)  can0  602   [8]  00 2E 00 00 10 D7 01 00
 (2019-06-04 13:10:23.965074)  can0  601   [8]  05 79 0E 19 00 DE 02 82
 (2019-06-04 13:10:23.965828)  can0  602   [8]  00 2F 00 00 10 D7 01 00
 (2019-06-04 13:10:24.065479)  can0  601   [8]  05 81 0E 19 00 DE 02 82
 (2019-06-04 13:10:24.066259)  can0  602   [8]  00 2F 00 00 10 D7 01 00
 (2019-06-04 13:10:24.169884)  can0  601   [8]  05 8B 0E 19 00 DF 02 82
 (2019-06-04 13:10:24.170639)  can0  602   [8]  00 2F 00 00 10 D7 01 00
 (2019-06-04 13:10:24.270319)  can0  601   [8]  05 93 0E 19 00 E2 02 85
 (2019-06-04 13:10:24.271133)  can0  602   [8]  00 2F 00 00 10 D7 01 00
 (2019-06-04 13:10:24.374859)  can0  601   [8]  05 9D 0E 19 00 E8 02 82
 (2019-06-04 13:10:24.375645)  can0  602   [8]  00 30 00 00 10 D7 01 00
 (2019-06-04 13:10:24.475088)  can0  601   [8]  05 A5 0E 19 00 E0 02 82
 (2019-06-04 13:10:24.475841)  can0  602   [8]  00 30 00 00 10 D7 01 00
 (2019-06-04 13:10:24.579523)  can0  601   [8]  05 B1 0E 19 00 DF 02 85
 (2019-06-04 13:10:24.580277)  can0  602   [8]  00 30 00 00 10 D7 01 00
 (2019-06-04 13:10:24.679944)  can0  601   [8]  05 B9 0E 19 00 E9 02 82
 (2019-06-04 13:10:24.680700)  can0  602   [8]  00 31 00 00 10 D7 01 00
 (2019-06-04 13:10:24.784362)  can0  601   [8]  05 C3 0E 19 00 DF 02 82
 (2019-06-04 13:10:24.785135)  can0  602   [8]  00 31 00 00 10 D7 01 00
 (2019-06-04 13:10:24.884821)  can0  601   [8]  05 CC 0E 19 00 E3 02 85
 (2019-06-04 13:10:24.885596)  can0  602   [8]  00 31 00 00 10 D7 01 00
 (2019-06-04 13:10:24.985140)  can0  601   [8]  05 D5 0E 19 00 E2 02 82
 (2019-06-04 13:10:24.985896)  can0  602   [8]  00 32 00 00 10 D7 01 00
 (2019-06-04 13:10:25.089526)  can0  601   [8]  05 DE 0E 19 00 DE 02 82
 (2019-06-04 13:10:25.090283)  can0  602   [8]  00 32 00 00 10 D7 01 00
 (2019-06-04 13:10:25.190002)  can0  601   [8]  05 E7 0E 19 00 E0 02 82
 (2019-06-04 13:10:25.190759)  can0  602   [8]  00 32 00 00 10 D7 01 00
 (2019-06-04 13:10:25.294327)  can0  601   [8]  05 EF 0E 19 00 DF 02 82
 (2019-06-04 13:10:25.295079)  can0  602   [8]  00 32 00 00 10 D7 01 00
 (2019-06-04 13:10:25.394845)  can0  601   [8]  05 F8 0E 19 00 E2 02 82
 (2019-06-04 13:10:25.395614)  can0  602   [8]  00 33 00 00 10 D7 01 00
 (2019-06-04 13:10:25.499171)  can0  601   [8]  06 01 0E 19 00 E1 02 82
 (2019-06-04 13:10:25.499924)  can0  602   [8]  00 33 00 00 10 D7 01 00
 (2019-06-04 13:10:25.599555)  can0  601   [8]  06 0A 0E 19 00 E2 02 85
 (2019-06-04 13:10:25.600310)  can0  602   [8]  00 33 00 00 10 D7 01 00
 (2019-06-04 13:10:25.704013)  can0  601   [8]  06 14 0E 19 00 E0 02 82
 (2019-06-04 13:10:25.704866)  can0  602   [8]  00 34 00 00 10 D7 01 00
 (2019-06-04 13:10:25.808413)  can0  601   [8]  06 1D 0E 19 00 E2 02 85
 (2019-06-04 13:10:25.809164)  can0  602   [8]  00 34 00 00 10 D7 01 00
 (2019-06-04 13:10:25.912796)  can0  601   [8]  06 26 0E 19 00 E4 02 82
 (2019-06-04 13:10:25.913572)  can0  602   [8]  00 34 00 00 10 D7 01 00
 (2019-06-04 13:10:26.017230)  can0  601   [8]  06 30 0E 19 00 E3 02 85
 (2019-06-04 13:10:26.017987)  can0  602   [8]  00 35 00 00 10 D7 01 00
 (2019-06-04 13:10:26.121675)  can0  601   [8]  06 3A 0E 19 00 E8 02 82
 (2019-06-04 13:10:26.122426)  can0  602   [8]  00 35 00 00 10 D7 01 00
 (2019-06-04 13:10:26.226124)  can0  601   [8]  06 42 0E 19 00 E3 02 82
 (2019-06-04 13:10:26.226877)  can0  602   [8]  00 35 00 00 10 D7 01 00
 (2019-06-04 13:10:26.330496)  can0  601   [8]  06 4B 0E 19 00 E2 02 85
 (2019-06-04 13:10:26.331249)  can0  602   [8]  00 36 00 00 10 D7 01 00
 (2019-06-04 13:10:26.430899)  can0  601   [8]  06 54 0E 19 00 E0 02 82
 (2019-06-04 13:10:26.431652)  can0  602   [8]  00 36 00 00 10 D7 01 00
 (2019-06-04 13:10:26.535285)  can0  601   [8]  06 5D 0E 19 00 DF 02 85
 (2019-06-04 13:10:26.536042)  can0  602   [8]  00 36 00 00 10 D7 01 00
 (2019-06-04 13:10:26.639714)  can0  601   [8]  06 65 0E 19 00 DF 02 82
 (2019-06-04 13:10:26.640471)  can0  602   [8]  00 36 00 00 10 D7 01 00
 (2019-06-04 13:10:26.744173)  can0  601   [8]  06 6D 0E 19 00 E5 02 82
 (2019-06-04 13:10:26.744932)  can0  602   [8]  00 37 00 00 10 D7 01 00
 (2019-06-04 13:10:26.848565)  can0  601   [8]  06 76 0E 19 00 E0 02 82
 (2019-06-04 13:10:26.849322)  can0  602   [8]  00 37 00 00 10 D7 01 00
 (2019-06-04 13:10:26.948919)  can0  601   [8]  06 80 0E 19 00 DE 02 82
 (2019-06-04 13:10:26.949676)  can0  602   [8]  00 37 00 00 10 D7 01 00
 (2019-06-04 13:10:27.053341)  can0  601   [8]  06 89 0E 19 00 E2 02 82
 (2019-06-04 13:10:27.054182)  can0  602   [8]  00 38 00 00 10 D7 01 00
 (2019-06-04 13:10:27.157735)  can0  601   [8]  06 91 0E 19 00 E3 02 82
 (2019-06-04 13:10:27.158492)  can0  602   [8]  00 38 00 00 10 D7 01 00
 (2019-06-04 13:10:27.262151)  can0  601   [8]  06 99 0E 19 00 E7 02 82
 (2019-06-04 13:10:27.262905)  can0  602   [8]  00 38 00 00 10 D7 01 00
 (2019-06-04 13:10:27.362570)  can0  601   [8]  06 9F 0E 19 00 E3 02 82
 (2019-06-04 13:10:27.363348)  can0  602   [8]  00 38 00 00 10 D7 01 00
 (2019-06-04 13:10:27.466988)  can0  601   [8]  06 A7 0E 19 00 DD 02 82
 (2019-06-04 13:10:27.467748)  can0  602   [8]  00 39 00 00 10 D7 01 00
 (2019-06-04 13:10:27.571415)  can0  601   [8]  06 AE 0E 19 00 D9 02 82
 (2019-06-04 13:10:27.572171)  can0  602   [8]  00 39 00 00 10 D7 01 00
 (2019-06-04 13:10:27.675817)  can0  601   [8]  06 B5 0E 19 00 DC 02 82
 (2019-06-04 13:10:27.676574)  can0  602   [8]  00 39 00 00 10 D7 01 00
 (2019-06-04 13:10:27.780234)  can0  601   [8]  06 BC 0E 19 00 E5 02 82
 (2019-06-04 13:10:27.780988)  can0  602   [8]  00 39 00 00 10 D7 01 00
 (2019-06-04 13:10:27.880580)  can0  601   [8]  06 C3 0E 19 00 E4 02 82
 (2019-06-04 13:10:27.881332)  can0  602   [8]  00 3A 00 00 10 D7 01 00
 (2019-06-04 13:10:27.985013)  can0  601   [8]  06 CB 0E 19 00 E2 02 82
 (2019-06-04 13:10:27.985768)  can0  602   [8]  00 3A 00 00 10 D7 01 00
 (2019-06-04 13:10:28.089419)  can0  601   [8]  06 D2 0E 19 00 DD 02 82
 (2019-06-04 13:10:28.090174)  can0  602   [8]  00 3A 00 00 10 D7 01 00
 (2019-06-04 13:10:28.193851)  can0  601   [8]  06 DA 0E 19 00 E0 02 82
 (2019-06-04 13:10:28.194709)  can0  602   [8]  00 3A 00 00 10 D7 01 00
 (2019-06-04 13:10:28.294328)  can0  601   [8]  06 DF 0E 19 00 E3 02 82
 (2019-06-04 13:10:28.295102)  can0  602   [8]  00 3B 00 00 10 D7 01 00
 (2019-06-04 13:10:28.398707)  can0  601   [8]  06 E6 0E 19 00 E5 02 82
 (2019-06-04 13:10:28.399461)  can0  602   [8]  00 3B 00 00 10 D7 01 00
 (2019-06-04 13:10:28.503090)  can0  601   [8]  06 EB 0E 19 00 E6 02 82
 (2019-06-04 13:10:28.503844)  can0  602   [8]  00 3B 00 00 10 D7 01 00
 (2019-06-04 13:10:28.607491)  can0  601   [8]  06 F1 0E 19 00 E8 02 82
 (2019-06-04 13:10:28.608248)  can0  602   [8]  00 3B 00 00 10 D7 01 00
 (2019-06-04 13:10:28.707896)  can0  601   [8]  06 F7 0E 19 00 E6 02 82
 (2019-06-04 13:10:28.708649)  can0  602   [8]  00 3B 00 00 10 D7 01 00
 (2019-06-04 13:10:28.812316)  can0  601   [8]  06 FD 0E 19 00 DD 02 82
 (2019-06-04 13:10:28.813067)  can0  602   [8]  00 3B 00 00 10 D7 01 00
 (2019-06-04 13:10:28.916885)  can0  601   [8]  07 02 0E 19 00 E2 02 82
 (2019-06-04 13:10:28.917644)  can0  602   [8]  00 3C 00 00 10 D7 01 00
 (2019-06-04 13:10:29.021191)  can0  601   [8]  07 07 0E 19 00 E7 02 82
 (2019-06-04 13:10:29.021951)  can0  602   [8]  00 3C 00 00 10 D7 01 00
 (2019-06-04 13:10:29.125527)  can0  601   [8]  07 0D 0E 19 00 E7 02 82
 (2019-06-04 13:10:29.126279)  can0  602   [8]  00 3C 00 00 10 D7 01 00
 (2019-06-04 13:10:29.225948)  can0  601   [8]  07 13 0E 19 00 E3 02 82
 (2019-06-04 13:10:29.226712)  can0  602   [8]  00 3C 00 00 10 D7 01 00
 (2019-06-04 13:10:29.330386)  can0  601   [8]  07 18 0E 19 00 DA 02 82
 (2019-06-04 13:10:29.331153)  can0  602   [8]  00 3C 00 00 10 D7 01 00
 (2019-06-04 13:10:29.434831)  can0  601   [8]  07 1E 0E 19 00 DA 02 82
 (2019-06-04 13:10:29.435590)  can0  602   [8]  00 3D 00 00 10 D7 01 00
 (2019-06-04 13:10:29.539242)  can0  601   [8]  07 23 0E 19 00 D8 02 82
 (2019-06-04 13:10:29.540002)  can0  602   [8]  00 3D 00 00 10 D7 01 00
 (2019-06-04 13:10:29.639590)  can0  601   [8]  07 27 0E 19 00 DD 02 82
 (2019-06-04 13:10:29.640365)  can0  602   [8]  00 3D 00 00 10 D7 01 00
 (2019-06-04 13:10:29.743998)  can0  601   [8]  07 2E 0E 19 00 EC 02 82
 (2019-06-04 13:10:29.744841)  can0  602   [8]  00 3D 00 00 10 D7 01 00
 (2019-06-04 13:10:29.848394)  can0  601   [8]  07 32 0E 19 00 EE 02 82
 (2019-06-04 13:10:29.849142)  can0  602   [8]  00 3D 00 00 10 D7 01 00
 (2019-06-04 13:10:29.952812)  can0  601   [8]  07 36 0E 19 00 EA 02 82
 (2019-06-04 13:10:29.953587)  can0  602   [8]  00 3D 00 00 10 D7 01 00
 (2019-06-04 13:10:30.053258)  can0  601   [8]  07 3B 0E 19 00 E5 02 82
 (2019-06-04 13:10:30.054013)  can0  602   [8]  00 3E 00 00 10 D7 01 00
 (2019-06-04 13:10:30.157674)  can0  601   [8]  07 40 0E 19 00 E5 02 82
 (2019-06-04 13:10:30.158433)  can0  602   [8]  00 3E 00 00 10 D7 01 00
 (2019-06-04 13:10:30.262070)  can0  601   [8]  07 45 0E 19 00 E6 02 82
 (2019-06-04 13:10:30.262824)  can0  602   [8]  00 3E 00 00 10 D7 01 00
 (2019-06-04 13:10:30.366471)  can0  601   [8]  07 4D 0E 19 00 E4 02 82
 (2019-06-04 13:10:30.367227)  can0  602   [8]  00 3E 00 00 10 D7 01 00
 (2019-06-04 13:10:30.470909)  can0  601   [8]  07 51 0E 19 00 E5 02 82
 (2019-06-04 13:10:30.471664)  can0  602   [8]  00 3E 00 00 10 D7 01 00
 (2019-06-04 13:10:30.571276)  can0  601   [8]  07 55 0E 19 00 E8 02 82
 (2019-06-04 13:10:30.572034)  can0  602   [8]  00 3F 00 00 10 D7 01 00
 (2019-06-04 13:10:30.675683)  can0  601   [8]  07 5B 0E 19 00 EA 02 82
 (2019-06-04 13:10:30.676435)  can0  602   [8]  00 3F 00 00 10 D7 01 00
 (2019-06-04 13:10:30.780118)  can0  601   [8]  07 61 0E 19 00 EB 02 82
 (2019-06-04 13:10:30.780869)  can0  602   [8]  00 3F 00 00 10 D7 01 00
 (2019-06-04 13:10:30.884538)  can0  601   [8]  07 63 0E 19 00 EA 02 82
 (2019-06-04 13:10:30.885313)  can0  602   [8]  00 3F 00 00 10 D7 01 00
 (2019-06-04 13:10:30.984977)  can0  601   [8]  07 67 0E 19 00 E3 02 82
 (2019-06-04 13:10:30.985732)  can0  602   [8]  00 3F 00 00 10 D7 01 00
 (2019-06-04 13:10:31.089347)  can0  601   [8]  07 6C 0E 19 00 E1 02 82
 (2019-06-04 13:10:31.090104)  can0  602   [8]  00 3F 00 00 10 D7 01 00
 (2019-06-04 13:10:31.193756)  can0  601   [8]  07 72 0E 19 00 E5 02 82
 (2019-06-04 13:10:31.194511)  can0  602   [8]  00 3F 00 00 10 D7 01 00
 (2019-06-04 13:10:31.298219)  can0  601   [8]  07 75 0E 19 00 E8 02 82
 (2019-06-04 13:10:31.298974)  can0  602   [8]  00 40 00 00 10 D7 01 00
 (2019-06-04 13:10:31.402590)  can0  601   [8]  07 79 0E 19 00 DF 02 82
 (2019-06-04 13:10:31.403350)  can0  602   [8]  00 40 00 00 10 D7 01 00
 (2019-06-04 13:10:31.503009)  can0  601   [8]  07 7F 0E 19 00 E7 02 82
 (2019-06-04 13:10:31.503764)  can0  602   [8]  00 40 00 00 10 D7 01 00
 (2019-06-04 13:10:31.607463)  can0  601   [8]  07 82 0E 19 00 E5 02 82
 (2019-06-04 13:10:31.608219)  can0  602   [8]  00 40 00 00 10 D7 01 00
 (2019-06-04 13:10:31.711803)  can0  601   [8]  07 86 0E 19 00 E1 02 82
 (2019-06-04 13:10:31.712557)  can0  602   [8]  00 40 00 00 10 D7 01 00
 (2019-06-04 13:10:31.816201)  can0  601   [8]  07 8D 0E 19 00 E5 02 82
 (2019-06-04 13:10:31.816956)  can0  602   [8]  00 40 00 00 10 D7 01 00
 (2019-06-04 13:10:31.916629)  can0  601   [8]  07 98 0E 19 00 FA 02 82
 (2019-06-04 13:10:31.917378)  can0  602   [8]  00 41 00 00 10 D7 01 00
 (2019-06-04 13:10:32.025050)  can0  601   [8]  07 AB 0E 19 01 05 02 82
 (2019-06-04 13:10:32.025843)  can0  602   [8]  00 41 00 00 10 D7 01 00
 (2019-06-04 13:10:32.129468)  can0  601   [8]  07 C0 0E 19 01 0C 02 82
 (2019-06-04 13:10:32.130227)  can0  602   [8]  00 42 00 00 10 D7 01 00
 (2019-06-04 13:10:32.233863)  can0  601   [8]  07 D6 0E 19 01 14 02 82
 (2019-06-04 13:10:32.234685)  can0  602   [8]  00 43 00 00 10 D7 01 00
 (2019-06-04 13:10:32.338267)  can0  601   [8]  07 EF 0E 19 01 15 02 82
 (2019-06-04 13:10:32.339024)  can0  602   [8]  00 44 00 00 10 D7 01 00
 (2019-06-04 13:10:32.442696)  can0  601   [8]  08 08 0E 19 01 15 02 82
 (2019-06-04 13:10:32.443453)  can0  602   [8]  00 44 00 00 10 D7 01 00
 (2019-06-04 13:10:32.543118)  can0  601   [8]  08 22 0E 19 01 18 02 82
 (2019-06-04 13:10:32.543870)  can0  602   [8]  00 45 00 00 10 D7 01 00
 (2019-06-04 13:10:32.651560)  can0  601   [8]  08 3D 0E 19 01 1C 02 82
 (2019-06-04 13:10:32.652311)  can0  602   [8]  00 46 00 00 10 D7 01 00
 (2019-06-04 13:10:32.756018)  can0  601   [8]  08 53 0E 19 01 19 02 82
 (2019-06-04 13:10:32.756775)  can0  602   [8]  00 47 00 00 10 D7 01 00
 (2019-06-04 13:10:32.856352)  can0  601   [8]  08 67 0E 19 01 12 02 82
 (2019-06-04 13:10:32.857144)  can0  602   [8]  00 47 00 00 10 D7 01 00
 (2019-06-04 13:10:32.960757)  can0  601   [8]  08 79 0E 19 01 15 02 82
 (2019-06-04 13:10:32.961515)  can0  602   [8]  00 48 00 00 10 D7 01 00
 (2019-06-04 13:10:33.065182)  can0  601   [8]  08 8A 0E 19 01 15 02 82
 (2019-06-04 13:10:33.065936)  can0  602   [8]  00 49 00 00 10 D7 01 00
 (2019-06-04 13:10:33.169582)  can0  601   [8]  08 9B 0E 19 01 12 02 82
 (2019-06-04 13:10:33.170337)  can0  602   [8]  00 49 00 00 10 D7 01 00
 (2019-06-04 13:10:33.274020)  can0  601   [8]  08 AF 0E 19 01 15 02 82
 (2019-06-04 13:10:33.274900)  can0  602   [8]  00 4A 00 00 10 D7 01 00
 (2019-06-04 13:10:33.378441)  can0  601   [8]  08 C3 0E 19 01 18 02 82
 (2019-06-04 13:10:33.379197)  can0  602   [8]  00 4A 00 00 10 D7 01 00
 (2019-06-04 13:10:33.482885)  can0  601   [8]  08 D6 0E 19 01 10 02 82
 (2019-06-04 13:10:33.483644)  can0  602   [8]  00 4B 00 00 10 D7 01 00
 (2019-06-04 13:10:33.583230)  can0  601   [8]  08 E8 0E 19 01 14 02 82
 (2019-06-04 13:10:33.583981)  can0  602   [8]  00 4C 00 00 10 D7 01 00
 (2019-06-04 13:10:33.687610)  can0  601   [8]  08 FA 0E 19 01 11 02 82
 (2019-06-04 13:10:33.688366)  can0  602   [8]  00 4C 00 00 10 D7 01 00
 (2019-06-04 13:10:33.792047)  can0  601   [8]  09 0E 0E 19 01 08 02 82
 (2019-06-04 13:10:33.792803)  can0  602   [8]  00 4D 00 00 10 D7 01 00
 (2019-06-04 13:10:33.896453)  can0  601   [8]  09 21 0E 19 01 0C 02 82
 (2019-06-04 13:10:33.897206)  can0  602   [8]  00 4E 00 00 10 D7 01 00
 (2019-06-04 13:10:34.000883)  can0  601   [8]  09 33 0E 19 01 0A 02 82
 (2019-06-04 13:10:34.001636)  can0  602   [8]  00 4E 00 00 10 D7 01 00
 (2019-06-04 13:10:34.105275)  can0  601   [8]  09 45 0E 19 01 0F 02 82
 (2019-06-04 13:10:34.106030)  can0  602   [8]  00 4F 00 00 10 D7 01 00
 (2019-06-04 13:10:34.209747)  can0  601   [8]  09 55 0E 19 01 1E 02 82
 (2019-06-04 13:10:34.210507)  can0  602   [8]  00 4F 00 00 10 D7 01 00
 (2019-06-04 13:10:34.314201)  can0  601   [8]  09 66 0E 19 01 1D 02 82
 (2019-06-04 13:10:34.314984)  can0  602   [8]  00 50 00 00 10 D7 01 00
 (2019-06-04 13:10:34.418532)  can0  601   [8]  09 75 0E 19 01 15 02 82
 (2019-06-04 13:10:34.419280)  can0  602   [8]  00 51 00 00 10 D7 01 00
 (2019-06-04 13:10:34.522978)  can0  601   [8]  09 81 0E 19 01 16 02 82
 (2019-06-04 13:10:34.523738)  can0  602   [8]  00 51 00 00 10 D7 01 00
 (2019-06-04 13:10:34.627361)  can0  601   [8]  09 8E 0E 19 01 16 02 80
 (2019-06-04 13:10:34.628117)  can0  602   [8]  00 51 00 00 10 D7 01 00
 (2019-06-04 13:10:34.731774)  can0  601   [8]  09 9D 0E 19 01 0F 02 82
 (2019-06-04 13:10:34.732529)  can0  602   [8]  00 52 00 00 10 D7 01 00
 (2019-06-04 13:10:34.836160)  can0  601   [8]  09 AB 0E 19 01 18 02 82
 (2019-06-04 13:10:34.836909)  can0  602   [8]  00 52 00 00 10 D7 01 00
 (2019-06-04 13:10:34.940608)  can0  601   [8]  09 BA 0E 19 01 11 02 82
 (2019-06-04 13:10:34.941359)  can0  602   [8]  00 53 00 00 10 D7 01 00
 (2019-06-04 13:10:35.045030)  can0  601   [8]  09 CB 0E 19 01 13 02 82
 (2019-06-04 13:10:35.045804)  can0  602   [8]  00 53 00 00 10 D7 01 00
 (2019-06-04 13:10:35.149416)  can0  601   [8]  09 D9 0E 19 01 12 02 82
 (2019-06-04 13:10:35.150174)  can0  602   [8]  00 54 00 00 10 D7 01 00
 (2019-06-04 13:10:35.253882)  can0  601   [8]  09 E9 0E 19 01 10 02 82
 (2019-06-04 13:10:35.254709)  can0  602   [8]  00 54 00 00 10 D7 01 00
 (2019-06-04 13:10:35.358313)  can0  601   [8]  09 F8 0E 19 01 15 02 82
 (2019-06-04 13:10:35.359071)  can0  602   [8]  00 55 00 00 10 D7 01 00
 (2019-06-04 13:10:35.462733)  can0  601   [8]  0A 08 0E 19 01 20 02 82
 (2019-06-04 13:10:35.463490)  can0  602   [8]  00 55 00 00 10 D7 01 00
 (2019-06-04 13:10:35.567163)  can0  601   [8]  0A 16 0E 19 01 1D 02 82
 (2019-06-04 13:10:35.567927)  can0  602   [8]  00 56 00 00 10 D7 01 00
 (2019-06-04 13:10:35.671489)  can0  601   [8]  0A 26 0E 19 01 17 02 82
 (2019-06-04 13:10:35.672241)  can0  602   [8]  00 56 00 00 10 D7 01 00
 (2019-06-04 13:10:35.775926)  can0  601   [8]  0A 32 0E 19 01 0D 02 82
 (2019-06-04 13:10:35.776683)  can0  602   [8]  00 57 00 00 10 D7 01 00
 (2019-06-04 13:10:35.880328)  can0  601   [8]  0A 3C 0E 19 01 0C 02 82
 (2019-06-04 13:10:35.881122)  can0  602   [8]  00 57 00 00 10 D7 01 00
 (2019-06-04 13:10:35.984826)  can0  601   [8]  0A 43 0E 19 01 07 02 82
 (2019-06-04 13:10:35.985575)  can0  602   [8]  00 57 00 00 10 D7 01 00
 (2019-06-04 13:10:36.093226)  can0  601   [8]  0A 4C 0E 19 01 09 02 82
 (2019-06-04 13:10:36.093984)  can0  602   [8]  00 58 00 00 10 D7 01 00
 (2019-06-04 13:10:36.197817)  can0  601   [8]  0A 52 0E 19 01 04 02 82
 (2019-06-04 13:10:36.198574)  can0  602   [8]  00 58 00 00 10 D7 01 00
 (2019-06-04 13:10:36.302096)  can0  601   [8]  0A 59 0E 19 01 03 02 82
 (2019-06-04 13:10:36.302847)  can0  602   [8]  00 58 00 00 10 D7 01 00
 (2019-06-04 13:10:36.406466)  can0  601   [8]  0A 5F 0E 19 01 01 02 82
 (2019-06-04 13:10:36.407229)  can0  602   [8]  00 58 00 00 10 D7 01 00
 (2019-06-04 13:10:36.510838)  can0  601   [8]  0A 63 0E 19 01 04 02 82
 (2019-06-04 13:10:36.511596)  can0  602   [8]  00 59 00 00 10 D7 01 00
 (2019-06-04 13:10:36.611282)  can0  601   [8]  0A 68 0E 19 01 02 02 82
 (2019-06-04 13:10:36.612038)  can0  602   [8]  00 59 00 00 10 D7 01 00
 (2019-06-04 13:10:36.719680)  can0  601   [8]  0A 6B 0E 19 00 FD 02 82
 (2019-06-04 13:10:36.720432)  can0  602   [8]  00 59 00 00 10 D7 01 00
 (2019-06-04 13:10:36.824165)  can0  601   [8]  0A 70 0E 19 01 01 02 82
 (2019-06-04 13:10:36.824932)  can0  602   [8]  00 59 00 00 10 D7 01 00
 (2019-06-04 13:10:36.924532)  can0  601   [8]  0A 76 0E 19 01 04 02 82
 (2019-06-04 13:10:36.925319)  can0  602   [8]  00 59 00 00 10 D7 01 00
 (2019-06-04 13:10:37.028910)  can0  601   [8]  0A 78 0E 19 00 F4 02 82
 (2019-06-04 13:10:37.029663)  can0  602   [8]  00 59 00 00 10 D7 01 00
 (2019-06-04 13:10:37.129327)  can0  601   [8]  0A 68 0E 19 00 DD 02 82
 (2019-06-04 13:10:37.130079)  can0  602   [8]  00 59 00 00 10 D7 01 00
 (2019-06-04 13:10:37.233744)  can0  601   [8]  0A 4A 0E 19 00 A5 02 82
 (2019-06-04 13:10:37.234504)  can0  602   [8]  00 58 00 00 10 D7 01 00
 (2019-06-04 13:10:37.338158)  can0  601   [8]  0A 2C 0E 19 00 96 02 82
 (2019-06-04 13:10:37.338941)  can0  602   [8]  00 57 00 00 10 D7 01 00
 (2019-06-04 13:10:37.442570)  can0  601   [8]  0A 09 0E 19 00 93 02 82
 (2019-06-04 13:10:37.443326)  can0  602   [8]  00 56 00 00 10 D7 01 00
 (2019-06-04 13:10:37.546995)  can0  601   [8]  09 E6 0E 19 00 AF 02 82
 (2019-06-04 13:10:37.547757)  can0  602   [8]  00 55 00 00 10 D7 01 00
 (2019-06-04 13:10:37.651372)  can0  601   [8]  09 C4 0E 19 00 96 02 82
 (2019-06-04 13:10:37.652127)  can0  602   [8]  00 53 00 00 10 D7 01 00
 (2019-06-04 13:10:37.751748)  can0  601   [8]  09 A3 0E 19 00 B6 02 82
 (2019-06-04 13:10:37.752506)  can0  602   [8]  00 52 00 00 10 D7 01 00
 (2019-06-04 13:10:37.856158)  can0  601   [8]  09 81 0E 19 00 8D 02 85
 (2019-06-04 13:10:37.856911)  can0  602   [8]  00 51 00 00 10 D7 01 00
 (2019-06-04 13:10:37.960583)  can0  601   [8]  09 5F 0E 19 00 61 02 85
 (2019-06-04 13:10:37.961344)  can0  602   [8]  00 50 00 00 10 D7 01 00
 (2019-06-04 13:10:38.061004)  can0  601   [8]  09 3D 0E 19 00 4E 02 82
 (2019-06-04 13:10:38.061762)  can0  602   [8]  00 4F 00 00 10 D7 01 00
 (2019-06-04 13:10:38.165402)  can0  601   [8]  09 1C 0E 19 00 4C 02 82
 (2019-06-04 13:10:38.166160)  can0  602   [8]  00 4E 00 00 10 D7 01 00
 (2019-06-04 13:10:38.269833)  can0  601   [8]  08 FA 0E 19 00 53 02 82
 (2019-06-04 13:10:38.270586)  can0  602   [8]  00 4D 00 00 10 D7 01 00
 (2019-06-04 13:10:38.370188)  can0  601   [8]  08 DA 0E 19 00 5D 02 85
 (2019-06-04 13:10:38.370941)  can0  602   [8]  00 4C 00 00 10 D7 01 00
 (2019-06-04 13:10:38.474675)  can0  601   [8]  08 B9 0E 19 00 95 02 85
 (2019-06-04 13:10:38.475441)  can0  602   [8]  00 4A 00 00 10 D7 01 00
 (2019-06-04 13:10:38.579020)  can0  601   [8]  08 99 0E 19 00 A4 02 85
 (2019-06-04 13:10:38.579773)  can0  602   [8]  00 49 00 00 10 D7 01 00
 (2019-06-04 13:10:38.679489)  can0  601   [8]  08 79 0E 19 00 9B 02 82
 (2019-06-04 13:10:38.680246)  can0  602   [8]  00 48 00 00 10 D7 01 00
 (2019-06-04 13:10:38.783890)  can0  601   [8]  08 58 0E 19 00 BF 02 85
 (2019-06-04 13:10:38.784737)  can0  602   [8]  00 47 00 00 10 D7 01 00
 (2019-06-04 13:10:38.888331)  can0  601   [8]  08 39 0E 19 00 AE 02 85
 (2019-06-04 13:10:38.889081)  can0  602   [8]  00 46 00 00 10 D7 01 00
 (2019-06-04 13:10:38.988650)  can0  601   [8]  08 1B 0E 19 00 91 02 82
 (2019-06-04 13:10:38.989402)  can0  602   [8]  00 45 00 00 10 D7 01 00
 (2019-06-04 13:10:39.093047)  can0  601   [8]  07 FB 0E 19 00 99 02 85
 (2019-06-04 13:10:39.093801)  can0  602   [8]  00 44 00 00 10 D7 01 00
 (2019-06-04 13:10:39.197670)  can0  601   [8]  07 DE 0E 19 00 B1 02 85
 (2019-06-04 13:10:39.198428)  can0  602   [8]  00 43 00 00 10 D7 01 00
 (2019-06-04 13:10:39.297916)  can0  601   [8]  07 C1 0E 19 00 95 02 82
 (2019-06-04 13:10:39.298677)  can0  602   [8]  00 42 00 00 10 D7 01 00
 (2019-06-04 13:10:39.402297)  can0  601   [8]  07 A3 0E 19 00 97 02 85
 (2019-06-04 13:10:39.403057)  can0  602   [8]  00 41 00 00 10 D7 01 00
 (2019-06-04 13:10:39.506729)  can0  601   [8]  07 86 0E 19 00 A6 02 85
 (2019-06-04 13:10:39.507489)  can0  602   [8]  00 40 00 00 10 D7 01 00
 (2019-06-04 13:10:39.611131)  can0  601   [8]  07 69 0E 19 00 AC 02 82
 (2019-06-04 13:10:39.611896)  can0  602   [8]  00 3F 00 00 10 D7 01 00
 (2019-06-04 13:10:39.715565)  can0  601   [8]  07 4D 0E 19 00 B6 02 82
 (2019-06-04 13:10:39.716323)  can0  602   [8]  00 3E 00 00 10 D7 01 00
 (2019-06-04 13:10:39.815931)  can0  601   [8]  07 32 0E 19 00 A2 02 85
 (2019-06-04 13:10:39.816688)  can0  602   [8]  00 3E 00 00 10 D7 01 00
 (2019-06-04 13:10:39.920365)  can0  601   [8]  07 18 0E 19 00 C2 02 85
 (2019-06-04 13:10:39.921123)  can0  602   [8]  00 3D 00 00 10 D7 01 00
 (2019-06-04 13:10:40.024856)  can0  601   [8]  06 FC 0E 19 00 A6 02 82
 (2019-06-04 13:10:40.025625)  can0  602   [8]  00 3C 00 00 10 D7 01 00
 (2019-06-04 13:10:40.125194)  can0  601   [8]  06 E2 0E 19 00 A1 02 85
 (2019-06-04 13:10:40.125941)  can0  602   [8]  00 3B 00 00 10 D7 01 00
 (2019-06-04 13:10:40.229647)  can0  601   [8]  06 C7 0E 19 00 75 02 82
 (2019-06-04 13:10:40.230400)  can0  602   [8]  00 3A 00 00 10 D7 01 00
 (2019-06-04 13:10:40.333999)  can0  601   [8]  06 AD 0E 19 00 84 02 85
 (2019-06-04 13:10:40.334812)  can0  602   [8]  00 39 00 00 10 D7 01 00
 (2019-06-04 13:10:40.438420)  can0  601   [8]  06 94 0E 19 00 AE 02 85
 (2019-06-04 13:10:40.439178)  can0  602   [8]  00 38 00 00 10 D7 01 00
 (2019-06-04 13:10:40.538897)  can0  601   [8]  06 7A 0E 19 00 98 02 85
 (2019-06-04 13:10:40.539654)  can0  602   [8]  00 37 00 00 10 D7 01 00
 (2019-06-04 13:10:40.643281)  can0  601   [8]  06 62 0E 19 00 BA 02 82
 (2019-06-04 13:10:40.644035)  can0  602   [8]  00 37 00 00 10 D7 01 00
 (2019-06-04 13:10:40.747654)  can0  601   [8]  06 49 0E 19 00 98 02 85
 (2019-06-04 13:10:40.748412)  can0  602   [8]  00 36 00 00 10 D7 01 00
 (2019-06-04 13:10:40.852075)  can0  601   [8]  06 31 0E 19 00 A8 02 85
 (2019-06-04 13:10:40.852829)  can0  602   [8]  00 35 00 00 10 D7 01 00
 (2019-06-04 13:10:40.956442)  can0  601   [8]  06 19 0E 19 00 A5 02 82
 (2019-06-04 13:10:40.957194)  can0  602   [8]  00 34 00 00 10 D7 01 00
 (2019-06-04 13:10:41.060867)  can0  601   [8]  06 02 0E 19 00 C0 02 82
 (2019-06-04 13:10:41.061644)  can0  602   [8]  00 33 00 00 10 D7 01 00
 (2019-06-04 13:10:41.161316)  can0  601   [8]  05 F0 0E 19 00 B3 02 82
 (2019-06-04 13:10:41.162071)  can0  602   [8]  00 33 00 00 10 D7 01 00
 (2019-06-04 13:10:41.265742)  can0  601   [8]  05 E3 0E 19 00 DA 02 82
 (2019-06-04 13:10:41.266499)  can0  602   [8]  00 32 00 00 10 D7 01 00
 (2019-06-04 13:10:41.366074)  can0  601   [8]  05 DA 0E 19 00 DA 02 85
 (2019-06-04 13:10:41.366827)  can0  602   [8]  00 32 00 00 10 D7 01 00
 (2019-06-04 13:10:41.470478)  can0  601   [8]  05 D1 0E 19 00 BC 02 82
 (2019-06-04 13:10:41.471236)  can0  602   [8]  00 32 00 00 10 D7 01 00
 (2019-06-04 13:10:41.570903)  can0  601   [8]  05 CB 0E 19 00 CC 02 82
 (2019-06-04 13:10:41.571658)  can0  602   [8]  00 31 00 00 10 D7 01 00
 (2019-06-04 13:10:41.671263)  can0  601   [8]  05 C6 0E 19 00 D8 02 85
 (2019-06-04 13:10:41.672016)  can0  602   [8]  00 31 00 00 10 D7 01 00
 (2019-06-04 13:10:41.775708)  can0  601   [8]  05 C2 0E 19 00 C1 02 85
 (2019-06-04 13:10:41.776468)  can0  602   [8]  00 31 00 00 10 D7 01 00
 (2019-06-04 13:10:41.876101)  can0  601   [8]  05 BD 0E 19 00 C7 02 82
 (2019-06-04 13:10:41.876859)  can0  602   [8]  00 31 00 00 10 D7 01 00
 (2019-06-04 13:10:41.980536)  can0  601   [8]  05 BB 0E 19 00 CF 02 82
 (2019-06-04 13:10:41.981294)  can0  602   [8]  00 31 00 00 10 D7 01 00
 (2019-06-04 13:10:42.080983)  can0  601   [8]  05 B7 0E 19 00 D6 02 82
 (2019-06-04 13:10:42.081738)  can0  602   [8]  00 31 00 00 10 D7 01 00
 (2019-06-04 13:10:42.185335)  can0  601   [8]  05 B5 0E 19 00 DC 02 82
 (2019-06-04 13:10:42.186089)  can0  602   [8]  00 31 00 00 10 D7 01 00
 (2019-06-04 13:10:42.285734)  can0  601   [8]  05 B1 0E 19 00 C9 02 82
 (2019-06-04 13:10:42.286493)  can0  602   [8]  00 31 00 00 10 D7 01 00
 (2019-06-04 13:10:42.390177)  can0  601   [8]  05 B0 0E 19 00 B8 02 85
 (2019-06-04 13:10:42.390932)  can0  602   [8]  00 30 00 00 10 D7 01 00
 (2019-06-04 13:10:42.490547)  can0  601   [8]  05 AC 0E 19 00 C9 02 82
 (2019-06-04 13:10:42.491305)  can0  602   [8]  00 30 00 00 10 D7 01 00
 (2019-06-04 13:10:42.591020)  can0  601   [8]  05 A9 0E 19 00 C1 02 82
 (2019-06-04 13:10:42.591781)  can0  602   [8]  00 30 00 00 10 D7 01 00
 (2019-06-04 13:10:42.695406)  can0  601   [8]  05 A8 0E 19 00 D0 02 82
 (2019-06-04 13:10:42.696168)  can0  602   [8]  00 30 00 00 10 D7 01 00
 (2019-06-04 13:10:42.795747)  can0  601   [8]  05 A5 0E 19 00 CD 02 82
 (2019-06-04 13:10:42.796502)  can0  602   [8]  00 30 00 00 10 D7 01 00
 (2019-06-04 13:10:42.896143)  can0  601   [8]  05 A5 0E 19 00 DA 02 85
 (2019-06-04 13:10:42.896900)  can0  602   [8]  00 30 00 00 10 D7 01 00
 (2019-06-04 13:10:43.000552)  can0  601   [8]  05 A3 0E 19 00 CC 02 85
 (2019-06-04 13:10:43.001311)  can0  602   [8]  00 30 00 00 10 D7 01 00
 (2019-06-04 13:10:43.100962)  can0  601   [8]  05 A2 0E 19 00 CE 02 82
 (2019-06-04 13:10:43.101714)  can0  602   [8]  00 30 00 00 10 D7 01 00
 (2019-06-04 13:10:43.201387)  can0  601   [8]  05 9F 0E 19 00 CB 02 82
 (2019-06-04 13:10:43.202143)  can0  602   [8]  00 30 00 00 10 D7 01 00
 (2019-06-04 13:10:43.305778)  can0  601   [8]  05 A3 0E 19 00 D8 02 82
 (2019-06-04 13:10:43.306527)  can0  602   [8]  00 30 00 00 10 D7 01 00
 (2019-06-04 13:10:43.406212)  can0  601   [8]  05 A5 0E 19 00 DF 02 82
 (2019-06-04 13:10:43.406969)  can0  602   [8]  00 30 00 00 10 D7 01 00
 (2019-06-04 13:10:43.510600)  can0  601   [8]  05 A9 0E 19 00 D8 02 82
 (2019-06-04 13:10:43.511354)  can0  602   [8]  00 30 00 00 10 D7 01 00
 (2019-06-04 13:10:43.610987)  can0  601   [8]  05 AC 0E 19 00 DB 02 82
 (2019-06-04 13:10:43.611736)  can0  602   [8]  00 30 00 00 10 D7 01 00
 (2019-06-04 13:10:43.715450)  can0  601   [8]  05 B2 0E 19 00 DE 02 82
 (2019-06-04 13:10:43.716207)  can0  602   [8]  00 30 00 00 10 D7 01 00
 (2019-06-04 13:10:43.815802)  can0  601   [8]  05 B7 0E 19 00 DC 02 82
 (2019-06-04 13:10:43.816560)  can0  602   [8]  00 31 00 00 10 D7 01 00
 (2019-06-04 13:10:43.916247)  can0  601   [8]  05 BC 0E 19 00 E3 02 82
 (2019-06-04 13:10:43.917005)  can0  602   [8]  00 31 00 00 10 D7 01 00
 (2019-06-04 13:10:44.020670)  can0  601   [8]  05 C2 0E 19 00 DE 02 82
 (2019-06-04 13:10:44.021426)  can0  602   [8]  00 31 00 00 10 D7 01 00
 (2019-06-04 13:10:44.120994)  can0  601   [8]  05 C9 0E 19 00 DC 02 82
 (2019-06-04 13:10:44.121753)  can0  602   [8]  00 31 00 00 10 D7 01 00
 (2019-06-04 13:10:44.225437)  can0  601   [8]  05 D0 0E 19 00 DF 02 82
 (2019-06-04 13:10:44.226213)  can0  602   [8]  00 32 00 00 10 D7 01 00
 (2019-06-04 13:10:44.325846)  can0  601   [8]  05 D7 0E 19 00 DF 02 82
 (2019-06-04 13:10:44.326606)  can0  602   [8]  00 32 00 00 10 D7 01 00
 (2019-06-04 13:10:44.426214)  can0  601   [8]  05 E2 0E 19 00 EA 02 82
 (2019-06-04 13:10:44.426970)  can0  602   [8]  00 32 00 00 10 D7 01 00
 (2019-06-04 13:10:44.530663)  can0  601   [8]  05 F8 0E 19 01 00 02 82
 (2019-06-04 13:10:44.531415)  can0  602   [8]  00 33 00 00 10 D7 01 00
 (2019-06-04 13:10:44.631054)  can0  601   [8]  06 0D 0E 19 01 09 02 82
 (2019-06-04 13:10:44.635122)  can0  602   [8]  00 34 00 00 10 D7 01 00
 (2019-06-04 13:10:44.735475)  can0  601   [8]  06 28 0E 19 01 0D 02 82
 (2019-06-04 13:10:44.736228)  can0  602   [8]  00 34 00 00 10 D7 01 00
 (2019-06-04 13:10:44.835825)  can0  601   [8]  06 42 0E 19 01 13 02 82
 (2019-06-04 13:10:44.836585)  can0  602   [8]  00 35 00 00 10 D7 01 00
 (2019-06-04 13:10:44.940263)  can0  601   [8]  06 5E 0E 19 01 14 02 82
 (2019-06-04 13:10:44.941028)  can0  602   [8]  00 36 00 00 10 D7 01 00
 (2019-06-04 13:10:45.040685)  can0  601   [8]  06 79 0E 19 01 0F 02 82
 (2019-06-04 13:10:45.041442)  can0  602   [8]  00 37 00 00 10 D7 01 00
 (2019-06-04 13:10:45.145097)  can0  601   [8]  06 95 0E 19 01 15 02 82
 (2019-06-04 13:10:45.145848)  can0  602   [8]  00 38 00 00 10 D7 01 00
 (2019-06-04 13:10:45.249517)  can0  601   [8]  06 B7 0E 19 01 27 02 82
 (2019-06-04 13:10:45.250274)  can0  602   [8]  00 39 00 00 13 D7 01 00
 (2019-06-04 13:10:45.353967)  can0  601   [8]  06 FC 0E 19 01 6C 02 80
 (2019-06-04 13:10:45.354729)  can0  602   [8]  00 3B 00 00 13 D7 01 00
 (2019-06-04 13:10:45.454300)  can0  601   [8]  07 74 0E 19 01 C8 02 80
 (2019-06-04 13:10:45.455080)  can0  602   [8]  00 3F 00 00 13 D7 01 00
 (2019-06-04 13:10:45.558727)  can0  601   [8]  08 3D 0E 19 02 29 02 7A
 (2019-06-04 13:10:45.559484)  can0  602   [8]  00 44 00 00 13 D7 01 00
 (2019-06-04 13:10:45.667156)  can0  601   [8]  09 77 0E 19 02 AE 02 74
 (2019-06-04 13:10:45.667917)  can0  602   [8]  00 50 00 00 13 D7 01 00
 (2019-06-04 13:10:45.767567)  can0  601   [8]  0A EE 0E 19 02 D3 02 72
 (2019-06-04 13:10:45.768324)  can0  602   [8]  00 5C 00 00 12 D7 01 00
 (2019-06-04 13:10:45.867956)  can0  601   [8]  0C 23 0E 19 02 A5 02 72
 (2019-06-04 13:10:45.868712)  can0  602   [8]  00 66 00 00 12 D7 01 00
 (2019-06-04 13:10:45.972352)  can0  601   [8]  0D 58 0E 19 02 8B 02 6F
 (2019-06-04 13:10:45.973109)  can0  602   [8]  00 6F 00 00 12 D7 01 00
 (2019-06-04 13:10:46.072822)  can0  601   [8]  0E 6F 0E 19 02 6C 02 6F
 (2019-06-04 13:10:46.073580)  can0  602   [8]  00 79 00 00 11 D7 01 00
 (2019-06-04 13:10:46.181207)  can0  601   [8]  0F 23 0E 19 01 8A 02 82
 (2019-06-04 13:10:46.181961)  can0  602   [8]  00 81 00 00 11 D7 03 00
 (2019-06-04 13:10:46.281576)  can0  601   [8]  0E 37 0E 19 01 99 02 80
 (2019-06-04 13:10:46.282326)  can0  602   [8]  00 7A 00 00 11 D7 01 00
 (2019-06-04 13:10:46.386008)  can0  601   [8]  0E 4B 0E 19 01 2A 02 80
 (2019-06-04 13:10:46.386795)  can0  602   [8]  00 7A 00 00 12 D7 03 00
 (2019-06-04 13:10:46.494485)  can0  601   [8]  0E 13 0E 19 00 97 02 82
 (2019-06-04 13:10:46.495264)  can0  602   [8]  00 78 00 00 18 D7 01 00
 (2019-06-04 13:10:46.594803)  can0  601   [8]  0D E0 0E 19 00 70 02 82
 (2019-06-04 13:10:46.595559)  can0  602   [8]  00 77 00 00 1E D7 01 00
 (2019-06-04 13:10:46.699221)  can0  601   [8]  0D B0 0E 19 00 88 02 82
 (2019-06-04 13:10:46.699971)  can0  602   [8]  00 75 00 00 25 D7 01 00
 (2019-06-04 13:10:46.799660)  can0  601   [8]  0D 86 0E 19 00 87 02 82
 (2019-06-04 13:10:46.800413)  can0  602   [8]  00 73 00 00 2A D7 01 00
 (2019-06-04 13:10:46.904045)  can0  601   [8]  0D 5F 0E 19 00 9C 02 82
 (2019-06-04 13:10:46.904894)  can0  602   [8]  00 72 00 00 2E D7 01 00
 (2019-06-04 13:10:47.004487)  can0  601   [8]  0D 41 0E 19 00 C3 02 82
 (2019-06-04 13:10:47.005268)  can0  602   [8]  00 71 00 00 30 D7 01 00
 (2019-06-04 13:10:47.104845)  can0  601   [8]  0D 28 0E 19 00 CC 02 82
 (2019-06-04 13:10:47.105602)  can0  602   [8]  00 70 00 00 30 D7 01 00
 (2019-06-04 13:10:47.209263)  can0  601   [8]  0D 0D 0E 19 00 CF 02 82
 (2019-06-04 13:10:47.210019)  can0  602   [8]  00 6F 00 00 30 D7 01 00
 (2019-06-04 13:10:47.309782)  can0  601   [8]  0C F0 0E 19 00 CF 02 82
 (2019-06-04 13:10:47.310539)  can0  602   [8]  00 6E 00 00 30 D7 01 00
 (2019-06-04 13:10:47.410085)  can0  601   [8]  0C D0 0E 19 00 BD 02 82
 (2019-06-04 13:10:47.410837)  can0  602   [8]  00 6D 00 00 30 D7 01 00
 (2019-06-04 13:10:47.514483)  can0  601   [8]  0C B3 0E 19 00 CD 02 82
 (2019-06-04 13:10:47.515250)  can0  602   [8]  00 6C 00 00 30 D7 01 00
 (2019-06-04 13:10:47.614847)  can0  601   [8]  0C 96 0E 19 00 C6 02 82
 (2019-06-04 13:10:47.615601)  can0  602   [8]  00 6C 00 00 30 D7 01 00
 (2019-06-04 13:10:47.715289)  can0  601   [8]  0C 7E 0E 19 00 C9 02 82
 (2019-06-04 13:10:47.716042)  can0  602   [8]  00 6B 00 00 2F D7 01 00
 (2019-06-04 13:10:47.815638)  can0  601   [8]  0C 6B 0E 19 00 DE 02 82
 (2019-06-04 13:10:47.816387)  can0  602   [8]  00 6A 00 00 2F D7 01 00
 (2019-06-04 13:10:47.920059)  can0  601   [8]  0C 58 0E 19 00 E4 02 82
 (2019-06-04 13:10:47.920818)  can0  602   [8]  00 69 00 00 2F D7 01 00
 (2019-06-04 13:10:48.020559)  can0  601   [8]  0C 48 0E 19 00 E5 02 82
 (2019-06-04 13:10:48.021337)  can0  602   [8]  00 69 00 00 2C D7 01 00
 (2019-06-04 13:10:48.120860)  can0  601   [8]  0C 3B 0E 19 00 E5 02 82
 (2019-06-04 13:10:48.121623)  can0  602   [8]  00 68 00 00 29 D7 01 00
 (2019-06-04 13:10:48.225286)  can0  601   [8]  0C 2C 0E 19 00 E5 02 82
 (2019-06-04 13:10:48.226041)  can0  602   [8]  00 68 00 00 25 D7 01 00
 (2019-06-04 13:10:48.325708)  can0  601   [8]  0C 22 0E 19 00 E6 02 82
 (2019-06-04 13:10:48.326461)  can0  602   [8]  00 68 00 00 23 D7 01 00
 (2019-06-04 13:10:48.430122)  can0  601   [8]  0C 19 0E 19 00 E9 02 82
 (2019-06-04 13:10:48.430881)  can0  602   [8]  00 67 00 00 21 D7 01 00
 (2019-06-04 13:10:48.534637)  can0  601   [8]  0C 0E 0E 19 00 EB 02 82
 (2019-06-04 13:10:48.535404)  can0  602   [8]  00 67 00 00 21 D7 01 00
 (2019-06-04 13:10:48.638941)  can0  601   [8]  0C 06 0E 19 00 EE 02 82
 (2019-06-04 13:10:48.639698)  can0  602   [8]  00 67 00 00 20 D7 01 00
 (2019-06-04 13:10:48.743367)  can0  601   [8]  0B FE 0E 19 00 E9 02 80
 (2019-06-04 13:10:48.744197)  can0  602   [8]  00 66 00 00 1E D7 01 00
 (2019-06-04 13:10:48.847791)  can0  601   [8]  0B FA 0E 19 00 F0 02 82
 (2019-06-04 13:10:48.848546)  can0  602   [8]  00 66 00 00 1C D7 01 00
 (2019-06-04 13:10:48.952197)  can0  601   [8]  0B F2 0E 19 00 EF 02 82
 (2019-06-04 13:10:48.952956)  can0  602   [8]  00 66 00 00 1C D7 01 00
 (2019-06-04 13:10:49.052566)  can0  601   [8]  0B ED 0E 19 00 F5 02 82
 (2019-06-04 13:10:49.053325)  can0  602   [8]  00 66 00 00 1B D7 01 00
 (2019-06-04 13:10:49.161196)  can0  601   [8]  0B EA 0E 19 00 F2 02 82
 (2019-06-04 13:10:49.161953)  can0  602   [8]  00 66 00 00 1A D7 01 00
 (2019-06-04 13:10:49.265504)  can0  601   [8]  0B E4 0E 19 00 F9 02 82
 (2019-06-04 13:10:49.266254)  can0  602   [8]  00 65 00 00 19 D7 01 00
 (2019-06-04 13:10:49.369862)  can0  601   [8]  0B E2 0E 19 00 FF 02 82
 (2019-06-04 13:10:49.370615)  can0  602   [8]  00 65 00 00 18 D7 01 00
 (2019-06-04 13:10:49.474259)  can0  601   [8]  0B DE 0E 19 00 F9 02 82
 (2019-06-04 13:10:49.475040)  can0  602   [8]  00 65 00 00 18 D7 01 00
 (2019-06-04 13:10:49.578712)  can0  601   [8]  0B DD 0E 19 00 FA 02 82
 (2019-06-04 13:10:49.579474)  can0  602   [8]  00 65 00 00 18 D7 01 00
 (2019-06-04 13:10:49.683086)  can0  601   [8]  0B DA 0E 19 00 FC 02 82
 (2019-06-04 13:10:49.683838)  can0  602   [8]  00 65 00 00 17 D7 01 00
 (2019-06-04 13:10:49.787541)  can0  601   [8]  0B D8 0E 19 00 FE 02 82
 (2019-06-04 13:10:49.788298)  can0  602   [8]  00 65 00 00 17 D7 01 00
 (2019-06-04 13:10:49.891903)  can0  601   [8]  0B D4 0E 19 00 F6 02 82
 (2019-06-04 13:10:49.892659)  can0  602   [8]  00 65 00 00 17 D7 01 00
 (2019-06-04 13:10:49.996329)  can0  601   [8]  0B D2 0E 19 00 F6 02 82
 (2019-06-04 13:10:49.997086)  can0  602   [8]  00 65 00 00 17 D7 01 00
 (2019-06-04 13:10:50.100774)  can0  601   [8]  0B CE 0E 19 00 F9 02 82
 (2019-06-04 13:10:50.101528)  can0  602   [8]  00 65 00 00 16 D7 01 00
 (2019-06-04 13:10:50.205182)  can0  601   [8]  0B CD 0E 19 00 FB 02 82
 (2019-06-04 13:10:50.205934)  can0  602   [8]  00 65 00 00 16 D7 01 00
 (2019-06-04 13:10:50.309744)  can0  601   [8]  0B CA 0E 19 00 F5 02 82
 (2019-06-04 13:10:50.310504)  can0  602   [8]  00 65 00 00 16 D7 01 00
 (2019-06-04 13:10:50.414051)  can0  601   [8]  0B C9 0E 19 00 FC 02 82
 (2019-06-04 13:10:50.414954)  can0  602   [8]  00 64 00 00 15 D7 01 00
 (2019-06-04 13:10:50.518420)  can0  601   [8]  0B C6 0E 19 00 FF 02 82
 (2019-06-04 13:10:50.519182)  can0  602   [8]  00 64 00 00 15 D7 01 00
 (2019-06-04 13:10:50.622873)  can0  601   [8]  0B C7 0E 19 01 05 02 82
 (2019-06-04 13:10:50.623632)  can0  602   [8]  00 64 00 00 15 D7 01 00
 (2019-06-04 13:10:50.727229)  can0  601   [8]  0B C6 0E 19 00 FA 02 82
 (2019-06-04 13:10:50.727987)  can0  602   [8]  00 64 00 00 15 D7 01 00
 (2019-06-04 13:10:50.831649)  can0  601   [8]  0B C4 0E 19 00 FA 02 82
 (2019-06-04 13:10:50.832403)  can0  602   [8]  00 64 00 00 14 D7 01 00
 (2019-06-04 13:10:50.936059)  can0  601   [8]  0B C4 0E 19 00 F7 02 80
 (2019-06-04 13:10:50.936812)  can0  602   [8]  00 64 00 00 14 D7 01 00
 (2019-06-04 13:10:51.040491)  can0  601   [8]  0B C2 0E 19 00 F8 02 82
 (2019-06-04 13:10:51.041246)  can0  602   [8]  00 64 00 00 14 D7 01 00
 (2019-06-04 13:10:51.144894)  can0  601   [8]  0B C2 0E 19 00 F3 02 82
 (2019-06-04 13:10:51.145654)  can0  602   [8]  00 64 00 00 14 D7 01 00
 (2019-06-04 13:10:51.249314)  can0  601   [8]  0B C1 0E 19 00 F0 02 80
 (2019-06-04 13:10:51.250067)  can0  602   [8]  00 64 00 00 14 D7 01 00
 (2019-06-04 13:10:51.349674)  can0  601   [8]  0B C0 0E 19 00 F4 02 82
 (2019-06-04 13:10:51.350432)  can0  602   [8]  00 64 00 00 14 D7 01 00
 (2019-06-04 13:10:51.454154)  can0  601   [8]  0B BD 0E 19 00 F5 02 82
 (2019-06-04 13:10:51.454943)  can0  602   [8]  00 64 00 00 13 D7 01 00
 (2019-06-04 13:10:51.558501)  can0  601   [8]  0B BD 0E 19 00 F6 02 80
 (2019-06-04 13:10:51.559258)  can0  602   [8]  00 64 00 00 13 D7 01 00
 (2019-06-04 13:10:51.662916)  can0  601   [8]  0B BC 0E 19 00 F7 02 80
 (2019-06-04 13:10:51.663672)  can0  602   [8]  00 64 00 00 13 D7 01 00
 (2019-06-04 13:10:51.767349)  can0  601   [8]  0B BF 0E 19 00 F7 02 82
 (2019-06-04 13:10:51.768102)  can0  602   [8]  00 64 00 00 13 D7 01 00
 (2019-06-04 13:10:51.871724)  can0  601   [8]  0B BD 0E 19 00 ED 02 82
 (2019-06-04 13:10:51.872478)  can0  602   [8]  00 64 00 00 13 D7 01 00
 (2019-06-04 13:10:51.976161)  can0  601   [8]  0B BD 0E 19 00 F2 02 82
 (2019-06-04 13:10:51.976923)  can0  602   [8]  00 64 00 00 13 D7 01 00
 (2019-06-04 13:10:52.076578)  can0  601   [8]  0B BC 0E 19 00 EF 02 82
 (2019-06-04 13:10:52.077335)  can0  602   [8]  00 64 00 00 13 D7 01 00
 (2019-06-04 13:10:52.180993)  can0  601   [8]  0B BC 0E 19 00 F1 02 82
 (2019-06-04 13:10:52.181757)  can0  602   [8]  00 64 00 00 13 D7 01 00
 (2019-06-04 13:10:52.285408)  can0  601   [8]  0B B9 0E 19 00 F2 02 82
 (2019-06-04 13:10:52.286160)  can0  602   [8]  00 64 00 00 13 D7 01 00
 (2019-06-04 13:10:52.389835)  can0  601   [8]  0B BA 0E 19 00 F7 02 82
 (2019-06-04 13:10:52.390594)  can0  602   [8]  00 64 00 00 13 D7 01 00
 (2019-06-04 13:10:52.494276)  can0  601   [8]  0B B9 0E 19 01 00 02 82
 (2019-06-04 13:10:52.495056)  can0  602   [8]  00 64 00 00 13 D7 01 00
 (2019-06-04 13:10:52.598651)  can0  601   [8]  0B B9 0E 19 00 FF 02 82
 (2019-06-04 13:10:52.599407)  can0  602   [8]  00 64 00 00 13 D7 01 00
 (2019-06-04 13:10:52.703056)  can0  601   [8]  0B B9 0E 19 00 FE 02 82
 (2019-06-04 13:10:52.703805)  can0  602   [8]  00 64 00 00 13 D7 01 00
 (2019-06-04 13:10:52.807501)  can0  601   [8]  0B BA 0E 19 01 01 02 82
 (2019-06-04 13:10:52.808256)  can0  602   [8]  00 64 00 00 13 D7 01 00
 (2019-06-04 13:10:52.911907)  can0  601   [8]  0B BB 0E 19 00 F5 02 82
 (2019-06-04 13:10:52.912660)  can0  602   [8]  00 64 00 00 13 D7 01 00
 (2019-06-04 13:10:53.012266)  can0  601   [8]  0B B8 0E 19 00 F4 02 80
 (2019-06-04 13:10:53.013019)  can0  602   [8]  00 64 00 00 13 D7 01 00
 (2019-06-04 13:10:53.120878)  can0  601   [8]  0B B9 0E 19 00 F0 02 82
 (2019-06-04 13:10:53.121628)  can0  602   [8]  00 64 00 00 13 D7 01 00
 (2019-06-04 13:10:53.221072)  can0  601   [8]  0B B9 0E 19 00 F3 02 82
 (2019-06-04 13:10:53.221822)  can0  602   [8]  00 64 00 00 13 D7 01 00
 (2019-06-04 13:10:53.325550)  can0  601   [8]  0B B8 0E 19 00 F6 02 82
 (2019-06-04 13:10:53.326305)  can0  602   [8]  00 64 00 00 13 D7 01 00
 (2019-06-04 13:10:53.429909)  can0  601   [8]  0B B8 0E 19 00 FD 02 82
 (2019-06-04 13:10:53.430660)  can0  602   [8]  00 64 00 00 13 D7 01 00
 (2019-06-04 13:10:53.534398)  can0  601   [8]  0B B9 0E 19 00 FB 02 80
 (2019-06-04 13:10:53.535172)  can0  602   [8]  00 64 00 00 13 D7 01 00
 (2019-06-04 13:10:53.638739)  can0  601   [8]  0B BA 0E 19 00 F9 02 82
 (2019-06-04 13:10:53.639485)  can0  602   [8]  00 64 00 00 13 D7 01 00
 (2019-06-04 13:10:53.743234)  can0  601   [8]  0B B7 0E 19 00 FB 02 80
 (2019-06-04 13:10:53.743992)  can0  602   [8]  00 64 00 00 13 D7 01 00
 (2019-06-04 13:10:53.847605)  can0  601   [8]  0B B8 0E 19 00 FB 02 80
 (2019-06-04 13:10:53.848363)  can0  602   [8]  00 64 00 00 13 D7 01 00
 (2019-06-04 13:10:53.952014)  can0  601   [8]  0B B8 0E 19 00 FB 02 82
 (2019-06-04 13:10:53.952774)  can0  602   [8]  00 64 00 00 13 D7 01 00
 (2019-06-04 13:10:54.056385)  can0  601   [8]  0B B8 0E 19 00 FC 02 82
 (2019-06-04 13:10:54.057137)  can0  602   [8]  00 64 00 00 13 D7 01 00
 (2019-06-04 13:10:54.156856)  can0  601   [8]  0B BA 0E 19 01 01 02 82
 (2019-06-04 13:10:54.157608)  can0  602   [8]  00 64 00 00 12 D7 01 00
 (2019-06-04 13:10:54.261262)  can0  601   [8]  0B B9 0E 19 00 FA 02 82
 (2019-06-04 13:10:54.262018)  can0  602   [8]  00 64 00 00 12 D7 01 00
 (2019-06-04 13:10:54.365665)  can0  601   [8]  0B B9 0E 19 00 F5 02 80
 (2019-06-04 13:10:54.366429)  can0  602   [8]  00 64 00 00 12 D7 01 00
 (2019-06-04 13:10:54.470173)  can0  601   [8]  0B B8 0E 19 00 FB 02 82
 (2019-06-04 13:10:54.470928)  can0  602   [8]  00 64 00 00 12 D7 01 00
 (2019-06-04 13:10:54.574530)  can0  601   [8]  0B B8 0E 19 00 F9 02 82
 (2019-06-04 13:10:54.575316)  can0  602   [8]  00 64 00 00 12 D7 01 00
 (2019-06-04 13:10:54.678939)  can0  601   [8]  0B B9 0E 19 00 F0 02 82
 (2019-06-04 13:10:54.679696)  can0  602   [8]  00 64 00 00 12 D7 01 00
 (2019-06-04 13:10:54.783333)  can0  601   [8]  0B B8 0E 19 00 F2 02 82
 (2019-06-04 13:10:54.784173)  can0  602   [8]  00 64 00 00 11 D7 01 00
 (2019-06-04 13:10:54.887730)  can0  601   [8]  0B B7 0E 19 00 F4 02 80
 (2019-06-04 13:10:54.888481)  can0  602   [8]  00 64 00 00 11 D7 01 00
 (2019-06-04 13:10:54.992163)  can0  601   [8]  0B B8 0E 19 00 FA 02 82
 (2019-06-04 13:10:54.996194)  can0  602   [8]  00 64 00 00 11 D7 01 00
 (2019-06-04 13:10:55.096546)  can0  601   [8]  0B B8 0E 19 00 F4 02 82
 (2019-06-04 13:10:55.097303)  can0  602   [8]  00 64 00 00 10 D7 01 00
 (2019-06-04 13:10:55.200993)  can0  601   [8]  0B AF 0E 19 00 DC 02 82
 (2019-06-04 13:10:55.201749)  can0  602   [8]  00 64 00 00 10 D7 01 00
 (2019-06-04 13:10:55.309403)  can0  601   [8]  0B 90 0E 19 00 A0 02 82
 (2019-06-04 13:10:55.310158)  can0  602   [8]  00 62 00 00 10 D7 01 00
 (2019-06-04 13:10:55.409811)  can0  601   [8]  0B 6B 0E 19 00 91 02 85
 (2019-06-04 13:10:55.410568)  can0  602   [8]  00 61 00 00 10 D7 01 00
 (2019-06-04 13:10:55.518207)  can0  601   [8]  0B 39 0E 19 00 62 02 85
 (2019-06-04 13:10:55.518965)  can0  602   [8]  00 60 00 00 0F D7 03 00
 (2019-06-04 13:10:55.618693)  can0  601   [8]  0B 07 0E 19 00 34 02 85
 (2019-06-04 13:10:55.619447)  can0  602   [8]  00 5E 00 00 0F D7 03 00
 (2019-06-04 13:10:55.719012)  can0  601   [8]  0A D2 0E 19 00 1A 02 85
 (2019-06-04 13:10:55.719767)  can0  602   [8]  00 5C 00 00 0F D7 03 00
 (2019-06-04 13:10:55.823429)  can0  601   [8]  0A 99 0E 19 00 25 02 85
 (2019-06-04 13:10:55.824223)  can0  602   [8]  00 5A 00 00 0F D7 03 00
 (2019-06-04 13:10:55.923847)  can0  601   [8]  0A 65 0E 19 00 22 02 85
 (2019-06-04 13:10:55.924673)  can0  602   [8]  00 58 00 00 0F D7 03 00
 (2019-06-04 13:10:56.028261)  can0  601   [8]  0A 30 0E 19 00 25 02 82
 (2019-06-04 13:10:56.029019)  can0  602   [8]  00 57 00 00 0F D7 03 00
 (2019-06-04 13:10:56.128636)  can0  601   [8]  09 FD 0E 19 00 23 02 85
 (2019-06-04 13:10:56.129390)  can0  602   [8]  00 55 00 00 0F D7 03 00
 (2019-06-04 13:10:56.229059)  can0  601   [8]  09 CC 0E 19 00 23 02 82
 (2019-06-04 13:10:56.229815)  can0  602   [8]  00 53 00 00 0F D7 03 00
 (2019-06-04 13:10:56.333456)  can0  601   [8]  09 99 0E 19 00 27 02 85
 (2019-06-04 13:10:56.334277)  can0  602   [8]  00 51 00 00 0F D7 03 00
 (2019-06-04 13:10:56.433891)  can0  601   [8]  09 68 0E 19 00 20 02 85
 (2019-06-04 13:10:56.434726)  can0  602   [8]  00 50 00 00 0F D7 03 00
 (2019-06-04 13:10:56.534290)  can0  601   [8]  09 38 0E 19 00 1F 02 82
 (2019-06-04 13:10:56.535072)  can0  602   [8]  00 4E 00 00 0F D7 03 00
 (2019-06-04 13:10:56.638668)  can0  601   [8]  09 06 0E 19 00 1F 02 85
 (2019-06-04 13:10:56.639420)  can0  602   [8]  00 4D 00 00 0F D7 03 00
 (2019-06-04 13:10:56.739050)  can0  601   [8]  08 D8 0E 19 00 23 02 85
 (2019-06-04 13:10:56.739836)  can0  602   [8]  00 4B 00 00 0F D7 03 00
 (2019-06-04 13:10:56.839473)  can0  601   [8]  08 A9 0E 19 00 22 02 85
 (2019-06-04 13:10:56.840228)  can0  602   [8]  00 49 00 00 0F D7 03 00
 (2019-06-04 13:10:56.939839)  can0  601   [8]  08 7B 0E 19 00 1E 02 85
 (2019-06-04 13:10:56.940591)  can0  602   [8]  00 48 00 00 0F D7 03 00
 (2019-06-04 13:10:57.040312)  can0  601   [8]  08 50 0E 19 00 26 02 85
 (2019-06-04 13:10:57.041064)  can0  602   [8]  00 46 00 00 0F D7 03 00
 (2019-06-04 13:10:57.144708)  can0  601   [8]  08 20 0E 19 00 27 02 85
 (2019-06-04 13:10:57.145478)  can0  602   [8]  00 45 00 00 0F D7 03 00
 (2019-06-04 13:10:57.245064)  can0  601   [8]  07 F4 0E 19 00 22 02 82
 (2019-06-04 13:10:57.245818)  can0  602   [8]  00 44 00 00 0F D7 03 00
 (2019-06-04 13:10:57.345466)  can0  601   [8]  07 C9 0E 19 00 27 02 85
 (2019-06-04 13:10:57.346220)  can0  602   [8]  00 42 00 00 0F D7 03 00
 (2019-06-04 13:10:57.449898)  can0  601   [8]  07 9B 0E 19 00 27 02 85
 (2019-06-04 13:10:57.450649)  can0  602   [8]  00 41 00 00 0F D7 03 00
 (2019-06-04 13:10:57.550363)  can0  601   [8]  07 71 0E 19 00 1B 02 85
 (2019-06-04 13:10:57.551119)  can0  602   [8]  00 3F 00 00 0F D7 03 00
 (2019-06-04 13:10:57.650684)  can0  601   [8]  07 48 0E 19 00 11 02 85
 (2019-06-04 13:10:57.651442)  can0  602   [8]  00 3D 00 00 0F D7 03 00
 (2019-06-04 13:10:57.755107)  can0  601   [8]  07 1D 0E 19 00 16 02 85
 (2019-06-04 13:10:57.755863)  can0  602   [8]  00 3C 00 00 0F D7 03 00
 (2019-06-04 13:10:57.855536)  can0  601   [8]  06 F3 0E 19 00 1C 02 85
 (2019-06-04 13:10:57.856293)  can0  602   [8]  00 3B 00 00 0F D7 03 00
 (2019-06-04 13:10:57.955871)  can0  601   [8]  06 CB 0E 19 00 1F 02 85
 (2019-06-04 13:10:57.956627)  can0  602   [8]  00 3A 00 00 0F D7 03 00
 (2019-06-04 13:10:58.060320)  can0  601   [8]  06 A1 0E 19 00 20 02 82
 (2019-06-04 13:10:58.061074)  can0  602   [8]  00 38 00 00 0F D7 03 00
 (2019-06-04 13:10:58.160697)  can0  601   [8]  06 7A 0E 19 00 26 02 85
 (2019-06-04 13:10:58.161452)  can0  602   [8]  00 37 00 00 0F D7 03 00
 (2019-06-04 13:10:58.261107)  can0  601   [8]  06 53 0E 19 00 25 02 85
 (2019-06-04 13:10:58.261858)  can0  602   [8]  00 36 00 00 0F D7 03 00
 (2019-06-04 13:10:58.365589)  can0  601   [8]  06 2A 0E 19 00 25 02 85
 (2019-06-04 13:10:58.366349)  can0  602   [8]  00 34 00 00 0F D7 03 00
 (2019-06-04 13:10:58.469908)  can0  601   [8]  06 04 0E 19 00 21 02 85
 (2019-06-04 13:10:58.470663)  can0  602   [8]  00 33 00 00 0F D7 03 00
 (2019-06-04 13:10:58.570315)  can0  601   [8]  05 DD 0E 19 00 1F 02 85
 (2019-06-04 13:10:58.571070)  can0  602   [8]  00 32 00 00 0F D7 03 00
 (2019-06-04 13:10:58.674857)  can0  601   [8]  05 B7 0E 19 00 24 02 85
 (2019-06-04 13:10:58.675620)  can0  602   [8]  00 30 00 00 0F D7 03 00
 (2019-06-04 13:10:58.775188)  can0  601   [8]  05 92 0E 19 00 21 02 82
 (2019-06-04 13:10:58.775936)  can0  602   [8]  00 2F 00 00 0F D7 03 00
 (2019-06-04 13:10:58.875592)  can0  601   [8]  05 6F 0E 19 00 23 02 85
 (2019-06-04 13:10:58.876343)  can0  602   [8]  00 2E 00 00 0F D7 03 00
 (2019-06-04 13:10:58.979959)  can0  601   [8]  05 4A 0E 19 00 24 02 85
 (2019-06-04 13:10:58.980720)  can0  602   [8]  00 2D 00 00 0F D7 03 00
 (2019-06-04 13:10:59.080361)  can0  601   [8]  05 26 0E 19 00 26 02 85
 (2019-06-04 13:10:59.081122)  can0  602   [8]  00 2B 00 00 0F D7 03 00
 (2019-06-04 13:10:59.184874)  can0  601   [8]  05 03 0E 19 00 23 02 85
 (2019-06-04 13:10:59.185645)  can0  602   [8]  00 2B 00 00 0F D7 03 00
 (2019-06-04 13:10:59.285164)  can0  601   [8]  04 E1 0E 19 00 25 02 85
 (2019-06-04 13:10:59.285915)  can0  602   [8]  00 29 00 00 0F D7 03 00
 (2019-06-04 13:10:59.385569)  can0  601   [8]  04 C0 0E 19 00 25 02 82
 (2019-06-04 13:10:59.386324)  can0  602   [8]  00 28 00 00 0F D7 03 00
 (2019-06-04 13:10:59.490009)  can0  601   [8]  04 9D 0E 19 00 24 02 85
 (2019-06-04 13:10:59.490765)  can0  602   [8]  00 27 00 00 0F D7 03 00
 (2019-06-04 13:10:59.590344)  can0  601   [8]  04 7D 0E 19 00 22 02 82
 (2019-06-04 13:10:59.591110)  can0  602   [8]  00 26 00 00 0F D7 03 00
 (2019-06-04 13:10:59.694879)  can0  601   [8]  04 5D 0E 19 00 21 02 85
 (2019-06-04 13:10:59.695656)  can0  602   [8]  00 25 00 00 0F D7 01 00
 (2019-06-04 13:10:59.795195)  can0  601   [8]  04 3E 0E 19 00 2B 02 85
 (2019-06-04 13:10:59.795945)  can0  602   [8]  00 24 00 00 10 D7 01 00
 (2019-06-04 13:10:59.895547)  can0  601   [8]  04 21 0E 19 00 2E 02 85
 (2019-06-04 13:10:59.896301)  can0  602   [8]  00 23 00 00 10 D7 01 00
 (2019-06-04 13:10:59.995976)  can0  601   [8]  04 04 0E 19 00 29 02 82
 (2019-06-04 13:10:59.996728)  can0  602   [8]  00 22 00 00 10 D7 01 00
 (2019-06-04 13:11:00.100416)  can0  601   [8]  03 E8 0E 19 00 35 02 85
 (2019-06-04 13:11:00.101177)  can0  602   [8]  00 22 00 00 10 D7 01 00
 (2019-06-04 13:11:00.200837)  can0  601   [8]  03 D0 0E 19 00 72 02 82
 (2019-06-04 13:11:00.201595)  can0  602   [8]  00 21 00 00 10 D7 01 00
 (2019-06-04 13:11:00.301219)  can0  601   [8]  03 C1 0E 19 00 B9 02 85
 (2019-06-04 13:11:00.301978)  can0  602   [8]  00 21 00 00 10 D7 01 00
 (2019-06-04 13:11:00.405649)  can0  601   [8]  03 BE 0E 19 00 DF 02 85
 (2019-06-04 13:11:00.406430)  can0  602   [8]  00 20 00 00 10 D7 01 00
